!Agilent Technologies,N5230A,MY45000845,A.06.01.05
!Agilent N5230A: A.06.01.05
!Date: Friday, July 13, 2012 16:22:03
!Correction: S11(Full 2 Port(1,2)) S21(Full 2 Port(1,2)) S12(Full 2 Port(1,2)) S22(Full 2 Port(1,2)) 
!S2P File: Measurements: S11, S21, S12, S22:
# Hz S  dB   R 50
300000 -1.544473e-002 -6.138852e-001 -5.790306e+001 1.770663e+002 -6.260392e+001 1.693690e+002 -1.184957e+001 -1.560810e+000
17174625 -6.560372e-001 -2.608668e+001 -2.830682e+001 -1.353976e+002 -5.473957e+001 -3.649467e+001 -1.368211e+001 -7.187207e+001
34049250 -1.716775e+000 -4.718169e+001 -2.122828e+001 1.181820e+002 -5.381766e+001 -8.873087e+001 -1.512681e+001 -1.251482e+002
50923875 -2.812478e+000 -6.481254e+001 -1.845177e+001 5.774725e+001 -5.934109e+001 -1.383716e+002 -1.542412e+001 -1.767711e+002
67798500 -3.784562e+000 -7.991190e+001 -1.766159e+001 1.398620e+001 -6.043163e+001 -1.676699e+002 -1.513527e+001 1.309920e+002
84673125 -4.604050e+000 -9.348573e+001 -1.828482e+001 -1.914961e+001 -5.916783e+001 1.745130e+002 -1.447465e+001 7.979240e+001
101547750 -5.228187e+000 -1.065014e+002 -2.012345e+001 -3.907330e+001 -6.452199e+001 1.361828e+002 -1.370775e+001 3.028630e+001
118422375 -5.717834e+000 -1.191456e+002 -2.141801e+001 -3.249428e+001 -6.094462e+001 8.586452e+001 -1.299059e+001 -1.738974e+001
135297000 -6.118295e+000 -1.316567e+002 -1.731711e+001 -2.249422e+001 -6.336507e+001 4.601101e+001 -1.241905e+001 -6.431917e+001
152171625 -6.430054e+000 -1.442883e+002 -1.208644e+001 -3.668955e+001 -6.348137e+001 -1.609745e+001 -1.201770e+001 -1.106277e+002
169046250 -6.665082e+000 -1.569588e+002 -7.871973e+000 -6.161420e+001 -7.079388e+001 5.410528e+001 -1.177997e+001 -1.568824e+002
185920875 -6.866539e+000 -1.698850e+002 -4.476489e+000 -9.007612e+001 -6.607395e+001 -1.350554e+001 -1.167938e+001 1.562685e+002
202795500 -7.032772e+000 1.772893e+002 -1.636421e+000 -1.200557e+002 -7.153806e+001 -1.057720e+002 -1.156751e+001 1.093068e+002
219670125 -7.166750e+000 1.641788e+002 7.883895e-001 -1.507711e+002 -6.659411e+001 -2.894159e+001 -1.140278e+001 6.230511e+001
236544750 -7.317791e+000 1.511322e+002 2.908859e+000 1.781133e+002 -7.010939e+001 -1.253728e+002 -1.116134e+001 1.553221e+001
253419375 -7.433342e+000 1.381549e+002 4.782482e+000 1.467216e+002 -7.017882e+001 -9.282147e+001 -1.087819e+001 -3.031963e+001
270294000 -7.521462e+000 1.250155e+002 6.445460e+000 1.153272e+002 -6.506612e+001 1.309026e+002 -1.063080e+001 -7.501015e+001
287168625 -7.624462e+000 1.118395e+002 7.941639e+000 8.379932e+001 -7.699264e+001 9.984613e+001 -1.045952e+001 -1.185352e+002
304043250 -7.713332e+000 9.866442e+001 9.275777e+000 5.230930e+001 -7.330984e+001 -8.580150e+001 -1.048540e+001 -1.617183e+002
320917875 -7.797525e+000 8.554394e+001 1.049458e+001 2.095152e+001 -9.295870e+001 -1.309051e+002 -1.065850e+001 1.552375e+002
337792500 -7.859562e+000 7.225528e+001 1.161139e+001 -1.041270e+001 -7.065145e+001 5.698072e+001 -1.094524e+001 1.116748e+002
354667125 -7.940496e+000 5.891415e+001 1.261291e+001 -4.179663e+001 -6.895972e+001 -9.803874e+001 -1.129063e+001 6.738280e+001
371541750 -8.007487e+000 4.553333e+001 1.351402e+001 -7.300995e+001 -6.701266e+001 -3.930931e+001 -1.154534e+001 2.239495e+001
388416375 -8.081867e+000 3.220871e+001 1.433409e+001 -1.040282e+002 -7.348413e+001 -7.100007e+001 -1.165035e+001 -2.283424e+001
405291000 -8.136833e+000 1.894051e+001 1.508219e+001 -1.348543e+002 -6.581376e+001 -1.586446e+002 -1.166705e+001 -6.715076e+001
422165625 -8.221290e+000 5.759107e+000 1.577609e+001 -1.655080e+002 -7.333395e+001 8.691557e+001 -1.158222e+001 -1.104460e+002
439040250 -8.291806e+000 -7.597186e+000 1.643406e+001 1.639976e+002 -7.070554e+001 5.242912e+001 -1.150307e+001 -1.523497e+002
455914875 -8.381087e+000 -2.107026e+001 1.704797e+001 1.336121e+002 -5.994719e+001 1.460959e+002 -1.150742e+001 1.668069e+002
472789500 -8.454905e+000 -3.436927e+001 1.763626e+001 1.033065e+002 -7.602163e+001 6.521014e+000 -1.165440e+001 1.264261e+002
489664125 -8.549222e+000 -4.794321e+001 1.819318e+001 7.297884e+001 -7.292827e+001 1.755996e+002 -1.196321e+001 8.631760e+001
506538750 -8.615818e+000 -6.147075e+001 1.870946e+001 4.268933e+001 -6.613799e+001 7.074133e+000 -1.245030e+001 4.517989e+001
523413375 -8.704871e+000 -7.512107e+001 1.918372e+001 1.232274e+001 -7.133511e+001 -8.880942e+001 -1.297793e+001 3.037385e+000
540288000 -8.769923e+000 -8.855616e+001 1.959903e+001 -1.785151e+001 -6.872903e+001 -8.601239e+001 -1.348178e+001 -4.066494e+001
557162625 -8.853422e+000 -1.021250e+002 1.997269e+001 -4.796243e+001 -6.695735e+001 1.740444e+002 -1.385447e+001 -8.500340e+001
574037250 -8.915679e+000 -1.158036e+002 2.031723e+001 -7.795861e+001 -7.599757e+001 -3.266741e+001 -1.398046e+001 -1.292744e+002
590911875 -8.970518e+000 -1.293303e+002 2.063593e+001 -1.076628e+002 -7.002873e+001 1.719362e+002 -1.394041e+001 -1.723999e+002
607786500 -9.038407e+000 -1.428288e+002 2.094259e+001 -1.372221e+002 -6.576043e+001 -1.792386e+002 -1.383560e+001 1.459994e+002
624661125 -9.111201e+000 -1.563350e+002 2.123913e+001 -1.666661e+002 -8.157439e+001 1.637978e+002 -1.380900e+001 1.056675e+002
641535750 -9.156014e+000 -1.699885e+002 2.152210e+001 1.639097e+002 -6.947896e+001 6.153191e+001 -1.385688e+001 6.640766e+001
658410375 -9.209392e+000 1.764244e+002 2.179618e+001 1.345465e+002 -7.070680e+001 1.220175e+002 -1.398491e+001 2.704910e+001
675285000 -9.257401e+000 1.628134e+002 2.205844e+001 1.051682e+002 -6.446581e+001 5.499165e+001 -1.435296e+001 -1.227568e+001
692159625 -9.318357e+000 1.493014e+002 2.230350e+001 7.586810e+001 -7.604359e+001 -1.304285e+002 -1.482741e+001 -5.251498e+001
709034250 -9.355302e+000 1.359716e+002 2.252216e+001 4.661378e+001 -6.844065e+001 -8.786501e+001 -1.533506e+001 -9.396346e+001
725908875 -9.406426e+000 1.225792e+002 2.272986e+001 1.741990e+001 -6.607739e+001 -9.661164e+001 -1.575829e+001 -1.362910e+002
742783500 -9.448553e+000 1.093373e+002 2.291398e+001 -1.168531e+001 -6.462197e+001 -1.307044e+002 -1.603140e+001 -1.787808e+002
759658125 -9.515402e+000 9.628807e+001 2.309166e+001 -4.066724e+001 -7.371574e+001 3.678869e+001 -1.615007e+001 1.386544e+002
776532750 -9.573558e+000 8.293673e+001 2.326042e+001 -6.953297e+001 -7.904696e+001 1.168277e+002 -1.623490e+001 9.746069e+001
793407375 -9.629179e+000 6.955461e+001 2.342304e+001 -9.843506e+001 -6.657172e+001 1.482107e+002 -1.626187e+001 5.669995e+001
810282000 -9.672127e+000 5.623903e+001 2.359262e+001 -1.271765e+002 -7.147170e+001 1.321060e+002 -1.627682e+001 1.653387e+001
827156625 -9.726750e+000 4.296342e+001 2.374781e+001 -1.559256e+002 -6.792002e+001 1.140144e+002 -1.639726e+001 -2.287420e+001
844031250 -9.810050e+000 2.963829e+001 2.390458e+001 1.753712e+002 -7.207978e+001 1.247242e+002 -1.657847e+001 -6.237547e+001
860905875 -9.863033e+000 1.641456e+001 2.405926e+001 1.466628e+002 -6.427643e+001 -1.379278e+001 -1.684376e+001 -1.015692e+002
877780500 -9.926044e+000 3.161480e+000 2.420105e+001 1.179553e+002 -8.085133e+001 1.579645e+002 -1.727598e+001 -1.409651e+002
894655125 -9.971792e+000 -1.004046e+001 2.433895e+001 8.924052e+001 -6.854658e+001 2.206615e+000 -1.772179e+001 1.787299e+002
911529750 -1.009224e+001 -2.337339e+001 2.445852e+001 6.054940e+001 -6.580020e+001 -1.179798e+002 -1.827598e+001 1.374759e+002
928404375 -1.017782e+001 -3.673048e+001 2.456665e+001 3.185503e+001 -6.818242e+001 3.036137e+001 -1.871309e+001 9.468799e+001
945279000 -1.025711e+001 -5.013239e+001 2.466615e+001 3.294979e+000 -7.235865e+001 -6.361536e+001 -1.908711e+001 5.199007e+001
962153625 -1.036131e+001 -6.374413e+001 2.475461e+001 -2.528926e+001 -7.112981e+001 -8.076239e+001 -1.930567e+001 7.447141e+000
979028250 -1.043976e+001 -7.748540e+001 2.483390e+001 -5.376143e+001 -6.723459e+001 -6.083962e+001 -1.904857e+001 -3.550658e+001
995902875 -1.053338e+001 -9.103999e+001 2.490885e+001 -8.216261e+001 -6.988013e+001 -2.712309e+001 -1.870088e+001 -7.739182e+001
1012777500 -1.060766e+001 -1.044805e+002 2.498059e+001 -1.104686e+002 -6.535793e+001 -1.182198e+002 -1.823670e+001 -1.173699e+002
1029652125 -1.067766e+001 -1.181212e+002 2.505466e+001 -1.386871e+002 -6.989662e+001 -1.684716e+002 -1.793732e+001 -1.541662e+002
1046526750 -1.072412e+001 -1.318924e+002 2.513397e+001 -1.669249e+002 -7.119223e+001 -7.275948e+001 -1.789143e+001 1.699069e+002
1063401375 -1.076817e+001 -1.455002e+002 2.521759e+001 1.648901e+002 -6.614890e+001 1.155248e+002 -1.809381e+001 1.347640e+002
1080276000 -1.084365e+001 -1.592019e+002 2.529977e+001 1.366605e+002 -7.581316e+001 1.712758e+002 -1.870164e+001 9.907626e+001
1097150625 -1.089743e+001 -1.730494e+002 2.538042e+001 1.084165e+002 -6.435793e+001 6.404816e+001 -1.960291e+001 6.172645e+001
1114025250 -1.094024e+001 1.732080e+002 2.545700e+001 8.015115e+001 -7.864490e+001 -1.791375e+002 -2.091685e+001 2.234536e+001
1130899875 -1.097381e+001 1.593520e+002 2.552306e+001 5.187362e+001 -7.066043e+001 -1.038717e+002 -2.214853e+001 -2.270460e+001
1147774500 -1.097049e+001 1.456979e+002 2.557760e+001 2.363706e+001 -7.144016e+001 9.687407e+000 -2.287939e+001 -7.058269e+001
1164649125 -1.097985e+001 1.321655e+002 2.562837e+001 -4.562801e+000 -7.272813e+001 2.556029e+001 -2.262552e+001 -1.197921e+002
1181523750 -1.096263e+001 1.185774e+002 2.566549e+001 -3.269751e+001 -6.731194e+001 1.748565e+001 -2.172818e+001 -1.652827e+002
1198398375 -1.096620e+001 1.051346e+002 2.570502e+001 -6.079929e+001 -8.255549e+001 -6.790022e+001 -2.084056e+001 1.549241e+002
1215273000 -1.098989e+001 9.166888e+001 2.574146e+001 -8.882496e+001 -6.804285e+001 -8.344961e+001 -2.028355e+001 1.189200e+002
1232147625 -1.097022e+001 7.824644e+001 2.577683e+001 -1.168410e+002 -7.097591e+001 -1.445533e+002 -2.014252e+001 8.413630e+001
1249022250 -1.098506e+001 6.509314e+001 2.582194e+001 -1.447886e+002 -7.172486e+001 1.604616e+002 -2.057029e+001 4.956776e+001
1265896875 -1.096652e+001 5.181395e+001 2.586373e+001 -1.727568e+002 -6.953337e+001 1.274662e+002 -2.135141e+001 1.413962e+001
1282771500 -1.097235e+001 3.869420e+001 2.590465e+001 1.592652e+002 -6.918339e+001 6.559443e+001 -2.252635e+001 -2.495480e+001
1299646125 -1.096961e+001 2.557414e+001 2.593852e+001 1.313280e+002 -6.746124e+001 1.042600e+002 -2.370782e+001 -6.828624e+001
1316520750 -1.101655e+001 1.248059e+001 2.597282e+001 1.033889e+002 -7.091927e+001 1.654360e+002 -2.448923e+001 -1.157820e+002
1333395375 -1.103764e+001 -6.237198e-001 2.600529e+001 7.546793e+001 -6.760557e+001 1.323918e+000 -2.423227e+001 -1.647283e+002
1350270000 -1.106470e+001 -1.365719e+001 2.603603e+001 4.758036e+001 -9.697343e+001 1.525355e+002 -2.336133e+001 1.504908e+002
1367144625 -1.113502e+001 -2.666402e+001 2.606832e+001 1.964978e+001 -7.117564e+001 1.713528e+002 -2.249941e+001 1.112369e+002
1384019250 -1.119837e+001 -3.990151e+001 2.609859e+001 -8.192730e+000 -6.753582e+001 -4.836585e+001 -2.200678e+001 7.467250e+001
1400893875 -1.128082e+001 -5.309824e+001 2.612770e+001 -3.605818e+001 -6.469564e+001 -4.144705e+001 -2.186532e+001 3.995672e+001
1417768500 -1.136625e+001 -6.642202e+001 2.615737e+001 -6.389441e+001 -7.421946e+001 -3.238030e+001 -2.212340e+001 5.036107e+000
1434643125 -1.142364e+001 -7.977176e+001 2.618181e+001 -9.174747e+001 -7.262189e+001 -1.134327e+002 -2.272237e+001 -3.129438e+001
1451517750 -1.152299e+001 -9.328388e+001 2.620858e+001 -1.195909e+002 -7.579253e+001 -1.139751e+002 -2.369411e+001 -6.860920e+001
1468392375 -1.161151e+001 -1.069824e+002 2.623014e+001 -1.474385e+002 -6.946664e+001 2.269172e+001 -2.467023e+001 -1.091395e+002
1485267000 -1.166089e+001 -1.203073e+002 2.624890e+001 -1.752414e+002 -7.180674e+001 -1.760907e+002 -2.554296e+001 -1.529965e+002
1502141625 -1.172159e+001 -1.340836e+002 2.626334e+001 1.569265e+002 -6.602834e+001 1.576442e+002 -2.614652e+001 1.620135e+002
1519016250 -1.180390e+001 -1.477570e+002 2.627624e+001 1.290842e+002 -7.024589e+001 1.159071e+002 -2.641330e+001 1.174486e+002
1535890875 -1.186545e+001 -1.616079e+002 2.628405e+001 1.012991e+002 -7.833698e+001 1.494500e+002 -2.640126e+001 7.216637e+001
1552765500 -1.194680e+001 -1.754188e+002 2.629917e+001 7.353167e+001 -7.204188e+001 1.491981e+002 -2.618942e+001 2.750534e+001
1569640125 -1.199027e+001 1.706465e+002 2.629576e+001 4.577638e+001 -6.767402e+001 -1.211470e+001 -2.575108e+001 -1.563139e+001
1586514750 -1.198482e+001 1.564049e+002 2.629943e+001 1.801610e+001 -6.722127e+001 1.001618e+002 -2.530062e+001 -5.649178e+001
1603389375 -1.198538e+001 1.426634e+002 2.629989e+001 -9.676378e+000 -6.999794e+001 3.864557e+001 -2.476899e+001 -9.627081e+001
1620264000 -1.195612e+001 1.287783e+002 2.629682e+001 -3.735750e+001 -8.439507e+001 1.063327e+002 -2.417956e+001 -1.341838e+002
1637138625 -1.191698e+001 1.150465e+002 2.629262e+001 -6.502082e+001 -7.836940e+001 3.506969e+001 -2.396563e+001 -1.697793e+002
1654013250 -1.190918e+001 1.012612e+002 2.629230e+001 -9.262878e+001 -7.304393e+001 -1.080634e+002 -2.399268e+001 1.560630e+002
1670887875 -1.187180e+001 8.777989e+001 2.628956e+001 -1.202322e+002 -7.425124e+001 -1.171227e+002 -2.447951e+001 1.216336e+002
1687762500 -1.179252e+001 7.420091e+001 2.628917e+001 -1.478380e+002 -6.942672e+001 -1.746921e+002 -2.558029e+001 8.693726e+001
1704637125 -1.177142e+001 6.065204e+001 2.629424e+001 -1.754083e+002 -6.502442e+001 1.634170e+002 -2.731277e+001 4.881191e+001
1721511750 -1.171799e+001 4.741906e+001 2.629340e+001 1.570049e+002 -6.697632e+001 -1.437667e+002 -2.941844e+001 8.236433e-001
1738386375 -1.163755e+001 3.388992e+001 2.629626e+001 1.294205e+002 -7.756940e+001 -6.434799e+001 -3.067196e+001 -5.695588e+001
1755261000 -1.161776e+001 2.069118e+001 2.629286e+001 1.018523e+002 -7.254538e+001 -4.336226e+001 -2.925260e+001 -1.131068e+002
1772135625 -1.157300e+001 7.580509e+000 2.629230e+001 7.428896e+001 -7.138940e+001 1.181405e+001 -2.685895e+001 -1.573260e+002
1789010250 -1.150263e+001 -5.491529e+000 2.628627e+001 4.675403e+001 -7.118796e+001 7.918063e+001 -2.538674e+001 1.670460e+002
1805884875 -1.146683e+001 -1.848908e+001 2.628489e+001 1.920621e+001 -7.030662e+001 -1.896653e+001 -2.436659e+001 1.347018e+002
1822759500 -1.144723e+001 -3.155794e+001 2.627913e+001 -8.243997e+000 -7.435168e+001 -9.829656e+001 -2.395310e+001 1.048627e+002
1839634125 -1.144905e+001 -4.458915e+001 2.628109e+001 -3.573626e+001 -7.333405e+001 -7.939211e+001 -2.440752e+001 7.530537e+001
1856508750 -1.143911e+001 -5.763338e+001 2.627852e+001 -6.324774e+001 -7.546739e+001 1.452084e+002 -2.546478e+001 4.475858e+001
1873383375 -1.146443e+001 -7.068026e+001 2.628032e+001 -9.065868e+001 -8.438009e+001 -8.731066e+001 -2.781942e+001 1.119325e+001
1890258000 -1.150037e+001 -8.372797e+001 2.627592e+001 -1.181785e+002 -6.992514e+001 -3.759445e+001 -3.118122e+001 -3.219446e+001
1907132625 -1.149596e+001 -9.695821e+001 2.627668e+001 -1.456099e+002 -6.597820e+001 -2.600350e+001 -3.372235e+001 -9.849240e+001
1924007250 -1.153115e+001 -1.102783e+002 2.627386e+001 -1.730940e+002 -6.637348e+001 -1.327556e+002 -3.162660e+001 -1.657190e+002
1940881875 -1.157298e+001 -1.234945e+002 2.627566e+001 1.594879e+002 -7.130588e+001 -4.726646e+001 -2.832534e+001 1.504317e+002
1957756500 -1.163889e+001 -1.366911e+002 2.627725e+001 1.320196e+002 -6.812358e+001 1.526835e+002 -2.624443e+001 1.153985e+002
1974631125 -1.165413e+001 -1.501218e+002 2.627242e+001 1.045973e+002 -7.464260e+001 1.120737e+002 -2.499014e+001 8.473277e+001
1991505750 -1.174533e+001 -1.636406e+002 2.627225e+001 7.718543e+001 -8.708511e+001 2.797732e+001 -2.460702e+001 5.552700e+001
2008380375 -1.181099e+001 -1.769461e+002 2.627655e+001 4.976043e+001 -7.659840e+001 -1.094030e+002 -2.504825e+001 2.599792e+001
2025255000 -1.183989e+001 1.693610e+002 2.627694e+001 2.233370e+001 -7.788930e+001 7.029141e+001 -2.627807e+001 -3.802050e+000
2042129625 -1.188282e+001 1.557048e+002 2.627773e+001 -5.098673e+000 -8.101861e+001 1.734001e+002 -2.825003e+001 -3.680447e+001
2059004250 -1.190368e+001 1.419323e+002 2.627654e+001 -3.254520e+001 -6.381415e+001 -8.846087e+001 -3.130112e+001 -8.121403e+001
2075878875 -1.192595e+001 1.282427e+002 2.627297e+001 -5.994267e+001 -6.329885e+001 -2.347205e+001 -3.367938e+001 -1.433380e+002
2092753500 -1.194174e+001 1.144509e+002 2.626594e+001 -8.736913e+001 -6.193484e+001 -1.151131e+002 -3.279866e+001 1.545257e+002
2109628125 -1.193938e+001 1.008589e+002 2.626311e+001 -1.147784e+002 -7.434644e+001 -9.458150e+001 -2.981071e+001 1.049960e+002
2126502750 -1.194428e+001 8.704630e+001 2.625754e+001 -1.420969e+002 -6.645536e+001 -6.973091e+001 -2.805112e+001 6.687437e+001
2143377375 -1.193308e+001 7.342427e+001 2.625325e+001 -1.694539e+002 -6.648588e+001 -3.686073e+001 -2.677168e+001 3.240456e+001
2160252000 -1.188895e+001 5.989227e+001 2.625210e+001 1.632144e+002 -7.364632e+001 1.739198e+002 -2.603024e+001 -1.307792e+000
2177126625 -1.188626e+001 4.629746e+001 2.625252e+001 1.358542e+002 -6.683833e+001 -1.673348e+002 -2.586268e+001 -3.418552e+001
2194001250 -1.186086e+001 3.264003e+001 2.625364e+001 1.085267e+002 -6.549162e+001 1.623743e+002 -2.617436e+001 -6.874385e+001
2210875875 -1.179283e+001 1.914645e+001 2.626237e+001 8.113376e+001 -7.647286e+001 6.409075e+001 -2.673149e+001 -1.041090e+002
2227750500 -1.175157e+001 5.838311e+000 2.626150e+001 5.378705e+001 -6.672044e+001 1.108047e+002 -2.759068e+001 -1.415716e+002
2244625125 -1.173253e+001 -7.415640e+000 2.626525e+001 2.643477e+001 -7.102431e+001 -8.081612e+001 -2.813499e+001 1.774282e+002
2261499750 -1.169468e+001 -2.060699e+001 2.626107e+001 -9.789982e-001 -7.024019e+001 -7.059403e+001 -2.912172e+001 1.377987e+002
2278374375 -1.163623e+001 -3.383940e+001 2.625386e+001 -2.834021e+001 -8.159800e+001 1.426817e+002 -2.979930e+001 9.310541e+001
2295249000 -1.165101e+001 -4.689801e+001 2.625421e+001 -5.568546e+001 -8.245545e+001 -2.910630e+001 -3.069337e+001 4.717744e+001
2312123625 -1.161129e+001 -5.993415e+001 2.625169e+001 -8.300878e+001 -6.887041e+001 3.082854e+001 -3.097748e+001 -3.058657e+000
2328998250 -1.163447e+001 -7.298911e+001 2.624747e+001 -1.103457e+002 -7.307352e+001 -1.259779e+002 -2.995219e+001 -5.541594e+001
2345872875 -1.163786e+001 -8.612303e+001 2.623981e+001 -1.376281e+002 -7.645126e+001 -1.592087e+002 -2.829047e+001 -9.847022e+001
2362747500 -1.167191e+001 -9.921146e+001 2.623650e+001 -1.649290e+002 -7.191644e+001 -1.396986e+002 -2.660881e+001 -1.372540e+002
2379622125 -1.168418e+001 -1.123207e+002 2.623477e+001 1.677620e+002 -7.057032e+001 -4.823046e+001 -2.519744e+001 -1.716157e+002
2396496750 -1.173387e+001 -1.254237e+002 2.624200e+001 1.405053e+002 -6.610983e+001 -1.788572e+002 -2.450108e+001 1.585107e+002
2413371375 -1.178788e+001 -1.384562e+002 2.624780e+001 1.131917e+002 -6.942123e+001 2.895221e+001 -2.430903e+001 1.278703e+002
2430246000 -1.185661e+001 -1.514465e+002 2.625098e+001 8.588926e+001 -6.999818e+001 1.163727e+001 -2.467861e+001 9.959881e+001
2447120625 -1.189232e+001 -1.647631e+002 2.625545e+001 5.854493e+001 -7.840628e+001 9.914829e+001 -2.593284e+001 7.005977e+001
2463995250 -1.199818e+001 -1.780967e+002 2.625740e+001 3.123230e+001 -6.539081e+001 1.401707e+002 -2.829917e+001 3.946345e+001
2480869875 -1.204730e+001 1.685213e+002 2.625503e+001 3.866971e+000 -7.024909e+001 5.368987e+001 -3.224630e+001 2.022550e+000
2497744500 -1.211937e+001 1.549529e+002 2.625040e+001 -2.342327e+001 -8.226998e+001 -9.745992e+001 -3.754953e+001 -7.347423e+001
2514619125 -1.219429e+001 1.414510e+002 2.624638e+001 -5.074252e+001 -7.552997e+001 -6.455882e+001 -3.341547e+001 -1.577608e+002
2531493750 -1.228042e+001 1.278498e+002 2.625129e+001 -7.801892e+001 -6.448866e+001 -4.926639e+001 -2.856715e+001 1.594078e+002
2548368375 -1.232061e+001 1.140864e+002 2.624658e+001 -1.053287e+002 -6.729708e+001 5.833786e+001 -2.578015e+001 1.293689e+002
2565243000 -1.237195e+001 1.004871e+002 2.624568e+001 -1.325687e+002 -7.165726e+001 1.125825e+002 -2.431931e+001 1.012070e+002
2582117625 -1.240245e+001 8.667175e+001 2.624296e+001 -1.598791e+002 -6.781715e+001 -5.557514e+001 -2.366462e+001 7.509665e+001
