!Agilent Technologies,N5230A,MY45000845,A.06.01.05
!Agilent N5230A: A.06.01.05
!Date: Friday, July 13, 2012 16:31:48
!Correction: S11(Full 2 Port(1,2)) S21(Full 2 Port(1,2)) S12(Full 2 Port(1,2)) S22(Full 2 Port(1,2)) 
!S2P File: Measurements: S11, S21, S12, S22:
# Hz S  dB   R 50
300000 -1.771003e+001 1.788682e+002 -5.870486e+001 -1.123368e+002 -6.087878e+001 -1.691903e+002 -7.707366e+000 1.784955e+002
17174625 -1.800511e+001 1.024796e+002 -6.802821e+001 1.583518e+002 -7.464540e+001 -1.347919e+002 -7.978149e+000 1.170367e+002
34049250 -1.741562e+001 2.430483e+001 -7.794858e+001 4.559513e+001 -6.698991e+001 -4.010755e+001 -7.962985e+000 5.759648e+001
50923875 -1.650082e+001 -5.606950e+001 -8.133308e+001 -2.938935e+001 -7.272530e+001 4.998522e-001 -7.944501e+000 -7.341132e-001
67798500 -1.556587e+001 -1.341116e+002 -7.853115e+001 9.201374e+001 -6.707840e+001 8.657765e+001 -8.011600e+000 -5.853285e+001
84673125 -1.511190e+001 1.492438e+002 -6.830961e+001 2.707611e+001 -7.101812e+001 1.446407e+000 -8.231602e+000 -1.167044e+002
101547750 -1.504027e+001 7.155193e+001 -7.011774e+001 -2.849439e+001 -7.075182e+001 1.551872e+002 -8.527961e+000 -1.757984e+002
118422375 -1.491358e+001 -9.012640e+000 -6.876253e+001 3.454125e+001 -6.782071e+001 -5.046547e+001 -8.727067e+000 1.242435e+002
135297000 -1.450906e+001 -8.855226e+001 -8.188887e+001 1.716914e+002 -7.019932e+001 3.937613e+001 -8.782186e+000 6.394589e+001
152171625 -1.425615e+001 -1.657958e+002 -7.536203e+001 -3.635802e+000 -7.643279e+001 -5.805226e+001 -8.712093e+000 4.064208e+000
169046250 -1.451846e+001 1.175351e+002 -7.067486e+001 1.313374e+002 -7.589021e+001 6.971674e+001 -8.560837e+000 -5.533794e+001
185920875 -1.503971e+001 3.710901e+001 -7.579499e+001 6.676752e+001 -7.177926e+001 2.429713e+001 -8.495596e+000 -1.145128e+002
202795500 -1.520938e+001 -4.650858e+001 -7.354021e+001 -4.255040e+001 -7.941067e+001 4.318113e+001 -8.388105e+000 -1.731870e+002
219670125 -1.486819e+001 -1.275144e+002 -6.595311e+001 6.242990e+001 -8.114405e+001 6.081682e+001 -8.270478e+000 1.287449e+002
236544750 -1.475280e+001 1.558484e+002 -7.790124e+001 4.976624e+001 -7.000920e+001 -1.531264e+002 -8.206416e+000 7.121729e+001
253419375 -1.515024e+001 7.926907e+001 -7.371398e+001 1.853733e+001 -7.447190e+001 6.543799e+001 -8.212587e+000 1.421133e+001
270294000 -1.568145e+001 -3.485673e-001 -6.627181e+001 1.654609e+002 -7.700327e+001 5.085748e+001 -8.390418e+000 -4.313702e+001
287168625 -1.564796e+001 -8.148872e+001 -7.408376e+001 8.951321e+001 -6.910806e+001 1.110881e+002 -8.687519e+000 -1.013028e+002
304043250 -1.531727e+001 -1.583991e+002 -7.793166e+001 4.030971e+001 -6.581469e+001 -9.278101e+001 -9.026402e+000 -1.607951e+002
320917875 -1.543449e+001 1.287146e+002 -7.134216e+001 -7.733492e+001 -6.935555e+001 -9.776265e+001 -9.265216e+000 1.390307e+002
337792500 -1.608694e+001 5.463451e+001 -7.347152e+001 -8.317331e+001 -6.428765e+001 -8.507780e+001 -9.279160e+000 7.890585e+001
354667125 -1.678279e+001 -2.413729e+001 -8.551822e+001 3.963914e+001 -7.546880e+001 -1.965282e+000 -9.214974e+000 1.969470e+001
371541750 -1.669735e+001 -1.038947e+002 -7.130732e+001 -1.187831e+002 -7.299475e+001 -4.937503e+001 -9.177960e+000 -3.902501e+001
388416375 -1.640134e+001 -1.788677e+002 -6.248695e+001 -5.752102e+001 -7.279970e+001 -1.376792e+002 -9.221271e+000 -9.774105e+001
405291000 -1.669802e+001 1.093525e+002 -7.857110e+001 -4.801789e+001 -7.426707e+001 1.002106e+002 -9.317557e+000 -1.573691e+002
422165625 -1.769524e+001 3.342359e+001 -7.382658e+001 9.287946e+001 -7.008306e+001 9.869288e+001 -9.282466e+000 1.428798e+002
439040250 -1.829707e+001 -5.056808e+001 -7.446853e+001 3.481247e+001 -7.122140e+001 -7.012464e+001 -9.104877e+000 8.386325e+001
455914875 -1.746272e+001 -1.344734e+002 -6.937754e+001 1.153269e+002 -6.640744e+001 1.673620e+002 -8.916107e+000 2.588435e+001
472789500 -1.652928e+001 1.495205e+002 -7.064546e+001 -1.006628e+002 -6.762233e+001 2.992957e+001 -8.917023e+000 -3.160504e+001
489664125 -1.637736e+001 7.606049e+001 -7.145069e+001 4.110645e+001 -6.161714e+001 -1.482527e+002 -9.147582e+000 -8.994853e+001
506538750 -1.679898e+001 -3.496270e+000 -6.542634e+001 9.038388e+001 -6.928911e+001 -1.422433e+002 -9.415999e+000 -1.493937e+002
523413375 -1.645953e+001 -8.846398e+001 -6.978925e+001 8.607934e+001 -7.533228e+001 7.502757e+001 -9.566594e+000 1.500899e+002
540288000 -1.514693e+001 -1.681269e+002 -7.936702e+001 -1.164825e+002 -7.392930e+001 7.207504e+001 -9.496176e+000 9.031669e+001
557162625 -1.427031e+001 1.187125e+002 -7.224955e+001 -7.459365e+001 -7.357288e+001 -9.855193e+001 -9.307010e+000 3.190471e+001
574037250 -1.437374e+001 4.674156e+001 -7.144085e+001 1.684183e+002 -6.888200e+001 -1.028797e+002 -9.227686e+000 -2.540980e+001
590911875 -1.501904e+001 -3.107497e+001 -6.803008e+001 3.858000e+001 -7.607072e+001 1.685062e+002 -9.395464e+000 -8.300008e+001
607786500 -1.512151e+001 -1.124961e+002 -7.571590e+001 1.527419e+002 -7.437315e+001 -7.250984e+001 -9.724294e+000 -1.424119e+002
624661125 -1.469424e+001 1.700456e+002 -7.673276e+001 -1.526440e+002 -6.563562e+001 1.689107e+002 -9.934108e+000 1.562853e+002
641535750 -1.486697e+001 9.778207e+001 -6.844336e+001 1.355160e+002 -7.896136e+001 1.567106e+002 -9.720737e+000 9.472115e+001
658410375 -1.611724e+001 2.368233e+001 -6.286878e+001 -2.927411e+001 -6.371030e+001 1.224337e+002 -9.228981e+000 3.537917e+001
675285000 -1.783830e+001 -5.994249e+001 -7.065215e+001 1.684197e+002 -6.478566e+001 7.727769e+001 -8.819561e+000 -2.082401e+001
692159625 -1.803124e+001 -1.491109e+002 -7.920138e+001 2.792827e+001 -6.595026e+001 -1.394264e+002 -8.724038e+000 -7.575820e+001
709034250 -1.725768e+001 1.305055e+002 -7.853102e+001 1.662434e+002 -6.750097e+001 1.608216e+001 -9.018733e+000 -1.315647e+002
725908875 -1.733555e+001 5.659668e+001 -6.769737e+001 6.783092e+001 -8.001840e+001 1.195323e+002 -9.532394e+000 1.704557e+002
742783500 -1.838185e+001 -2.160702e+001 -6.489796e+001 -9.320419e+001 -6.986485e+001 9.797839e+001 -9.963681e+000 1.097045e+002
759658125 -1.843628e+001 -1.086631e+002 -7.376519e+001 1.642415e+002 -6.183899e+001 7.194114e+001 -9.977357e+000 4.837008e+001
776532750 -1.700910e+001 1.716118e+002 -7.273301e+001 8.496919e+001 -7.163411e+001 3.334187e+001 -9.745348e+000 -1.132602e+001
793407375 -1.612729e+001 1.023811e+002 -7.202589e+001 1.158139e+002 -8.216897e+001 1.405785e+002 -9.622489e+000 -6.884396e+001
810282000 -1.644978e+001 3.425406e+001 -6.880735e+001 3.086921e+001 -7.320357e+001 5.501648e+001 -9.781410e+000 -1.256799e+002
827156625 -1.769268e+001 -4.095330e+001 -7.407371e+001 5.745221e+001 -6.620365e+001 -6.638512e+000 -1.018442e+001 1.753399e+002
844031250 -1.806234e+001 -1.252190e+002 -7.546426e+001 1.487073e+001 -6.441272e+001 1.284932e+002 -1.047374e+001 1.133663e+002
860905875 -1.706339e+001 1.559766e+002 -7.475814e+001 -2.347021e+001 -7.371407e+001 -1.246247e+002 -1.027376e+001 5.067688e+001
877780500 -1.651670e+001 8.539413e+001 -6.566167e+001 -1.540587e+002 -7.196529e+001 7.539725e+001 -9.731454e+000 -9.579062e+000
894655125 -1.728191e+001 1.433420e+001 -7.965974e+001 -1.454119e+002 -7.303545e+001 1.111502e+002 -9.346416e+000 -6.631413e+001
911529750 -1.882429e+001 -6.839939e+001 -6.505342e+001 4.577510e+001 -6.649063e+001 -1.139534e+002 -9.339779e+000 -1.214376e+002
928404375 -1.843097e+001 -1.604935e+002 -8.290182e+001 7.169601e+001 -7.335793e+001 -5.604229e+001 -9.710206e+000 -1.778710e+002
945279000 -1.667329e+001 1.189591e+002 -6.312991e+001 -1.328848e+002 -6.449459e+001 1.377960e+002 -1.018698e+001 1.231192e+002
962153625 -1.598706e+001 4.667495e+001 -6.576371e+001 -1.764195e+002 -7.361585e+001 -1.613500e+002 -1.043256e+001 6.186801e+001
979028250 -1.650341e+001 -2.963438e+001 -7.330986e+001 4.064076e+001 -8.218440e+001 1.698012e+002 -1.023764e+001 7.838486e-001
995902875 -1.669542e+001 -1.146276e+002 -6.934170e+001 -1.107056e+002 -6.768644e+001 -6.027646e+001 -9.935562e+000 -5.819672e+001
1012777500 -1.556191e+001 1.626485e+002 -6.198247e+001 -1.791986e+002 -6.706834e+001 9.564051e+001 -9.839144e+000 -1.154400e+002
1029652125 -1.454774e+001 8.934772e+001 -6.528271e+001 1.015387e+002 -7.476207e+001 -8.889717e+001 -1.000684e+001 -1.725220e+002
1046526750 -1.464252e+001 1.888424e+001 -6.810381e+001 3.734358e+001 -9.335392e+001 -1.632830e+002 -1.032979e+001 1.282410e+002
1063401375 -1.557456e+001 -5.715048e+001 -7.780945e+001 -9.946050e-001 -7.220825e+001 -3.069016e+001 -1.041745e+001 6.734305e+001
1080276000 -1.599586e+001 -1.390180e+002 -6.684959e+001 -1.520265e+002 -8.743886e+001 -8.306691e+001 -1.015571e+001 7.043631e+000
1097150625 -1.568411e+001 1.425181e+002 -6.493168e+001 1.104707e+002 -7.323853e+001 1.506903e+002 -9.796579e+000 -5.080481e+001
1114025250 -1.584418e+001 7.110317e+001 -7.712512e+001 -9.630227e+000 -6.842090e+001 -1.488533e+002 -9.656012e+000 -1.070966e+002
1130899875 -1.729188e+001 -1.057800e+000 -6.890886e+001 -1.018435e+002 -7.204673e+001 1.471410e+001 -9.827917e+000 -1.635919e+002
1147774500 -1.935619e+001 -8.584361e+001 -6.706101e+001 1.631195e+002 -7.375624e+001 1.652700e+002 -1.019970e+001 1.374620e+002
1164649125 -1.912650e+001 -1.791267e+002 -7.542860e+001 -1.147748e+002 -6.492360e+001 -1.557671e+002 -1.037230e+001 7.628456e+001
1181523750 -1.753206e+001 1.026221e+002 -7.371729e+001 2.054880e+001 -6.779678e+001 1.159584e+002 -1.015448e+001 1.534007e+001
1198398375 -1.733203e+001 3.280509e+001 -6.779873e+001 -6.356453e+001 -7.210487e+001 -1.223553e+002 -9.717615e+000 -4.296972e+001
1215273000 -1.858515e+001 -4.189937e+001 -6.159231e+001 1.692516e+002 -6.547375e+001 -1.403705e+002 -9.529777e+000 -9.854579e+001
1232147625 -1.912365e+001 -1.293033e+002 -6.624117e+001 5.880345e+001 -6.644498e+001 -1.055118e+001 -9.782773e+000 -1.537204e+002
1249022250 -1.745093e+001 1.482105e+002 -6.657010e+001 1.348596e+001 -6.668256e+001 -7.409954e+001 -1.047056e+001 1.487994e+002
1265896875 -1.613126e+001 7.868760e+001 -7.128156e+001 -1.536562e+002 -6.844660e+001 1.351178e+002 -1.114364e+001 8.687178e+001
1282771500 -1.615984e+001 1.210543e+001 -7.459174e+001 9.526854e+000 -6.706152e+001 1.746436e+002 -1.125652e+001 2.232255e+001
1299646125 -1.737038e+001 -6.218101e+001 -7.242038e+001 4.727192e+001 -6.804898e+001 1.407061e+002 -1.072164e+001 -3.968721e+001
1316520750 -1.770978e+001 -1.471522e+002 -6.684880e+001 -4.524670e+001 -7.426519e+001 1.385887e+002 -1.011689e+001 -9.716614e+001
1333395375 -1.656817e+001 1.330286e+002 -6.788689e+001 -1.606577e+002 -8.991054e+001 9.928345e+001 -9.912005e+000 -1.522031e+002
1350270000 -1.590688e+001 6.284734e+001 -6.883367e+001 1.384876e+002 -7.852265e+001 -3.920662e+001 -1.014537e+001 1.521181e+002
1367144625 -1.678063e+001 -7.404431e+000 -6.694336e+001 4.747524e+001 -7.976637e+001 -8.581128e+000 -1.057858e+001 9.322975e+001
1384019250 -1.858538e+001 -8.973112e+001 -6.245597e+001 -9.138424e+000 -7.250594e+001 -9.998375e+001 -1.077845e+001 3.087353e+001
1400893875 -1.831558e+001 1.767950e+002 -6.978459e+001 1.331805e+002 -8.304306e+001 -1.239568e+001 -1.048106e+001 -3.116475e+001
1417768500 -1.660692e+001 9.712788e+001 -7.225607e+001 1.394912e+002 -7.250999e+001 1.431758e+002 -9.998374e+000 -8.960732e+001
1434643125 -1.631230e+001 2.586776e+001 -6.531068e+001 -2.820440e+001 -7.222849e+001 -2.482348e+001 -9.754151e+000 -1.449168e+002
1451517750 -1.753445e+001 -5.131823e+001 -6.332947e+001 -7.529416e+001 -7.277088e+001 1.931301e+001 -1.001331e+001 1.602952e+002
1468392375 -1.802915e+001 -1.424055e+002 -6.739286e+001 -1.613409e+002 -7.194792e+001 -1.346068e+002 -1.062434e+001 1.031636e+002
1485267000 -1.623116e+001 1.336782e+002 -6.419578e+001 1.271463e+002 -6.903973e+001 -1.522715e+002 -1.121213e+001 4.196016e+001
1502141625 -1.495544e+001 6.420850e+001 -6.776777e+001 3.466051e+001 -7.894093e+001 3.696473e+001 -1.122417e+001 -2.205634e+001
1519016250 -1.540174e+001 -1.504413e+000 -6.378131e+001 -7.998659e+001 -7.290651e+001 -1.184637e+002 -1.063233e+001 -8.372364e+001
1535890875 -1.739762e+001 -7.519758e+001 -6.757513e+001 -1.498579e+002 -7.156141e+001 -1.615602e+002 -1.002945e+001 -1.411207e+002
1552765500 -1.873182e+001 -1.645216e+002 -6.813802e+001 9.358827e+001 -7.598123e+001 -9.136109e+001 -9.761697e+000 1.638396e+002
1569640125 -1.751555e+001 1.108009e+002 -6.279178e+001 2.679404e+001 -7.052748e+001 -1.042020e+002 -9.861898e+000 1.088334e+002
1586514750 -1.672219e+001 4.160133e+001 -6.129182e+001 -8.295235e+001 -6.881026e+001 -1.278765e+002 -1.017655e+001 5.217061e+001
1603389375 -1.790885e+001 -2.514994e+001 -6.316672e+001 -1.662919e+002 -7.519325e+001 1.048914e+002 -1.047319e+001 -6.693781e+000
1620264000 -2.072311e+001 -1.058072e+002 -6.026902e+001 1.115060e+002 -6.949519e+001 7.258875e+001 -1.059977e+001 -6.642815e+001
1637138625 -2.092056e+001 1.556398e+002 -5.917058e+001 1.026707e+001 -6.961762e+001 9.686194e+001 -1.065897e+001 -1.258999e+002
1654013250 -1.857297e+001 7.553413e+001 -6.332677e+001 -6.263713e+001 -7.072904e+001 1.702948e+002 -1.075142e+001 1.747756e+002
1670887875 -1.778387e+001 8.763927e+000 -5.955204e+001 -1.587793e+002 -8.658103e+001 -3.142488e+001 -1.093309e+001 1.143767e+002
1687762500 -1.883299e+001 -6.149527e+001 -6.138057e+001 9.804482e+001 -6.683983e+001 -1.043428e+002 -1.100994e+001 5.331170e+001
1704637125 -2.000507e+001 -1.463319e+002 -6.012918e+001 -8.014450e+000 -7.286856e+001 1.365359e+002 -1.083997e+001 -7.587649e+000
1721511750 -1.864431e+001 1.270972e+002 -5.985723e+001 -8.594499e+001 -7.284634e+001 1.580975e+002 -1.048033e+001 -6.601141e+001
1738386375 -1.706479e+001 5.486279e+001 -6.333681e+001 1.753349e+002 -6.773199e+001 1.418887e+002 -1.030833e+001 -1.223120e+002
1755261000 -1.703725e+001 -1.195517e+001 -6.147673e+001 1.028686e+002 -7.040123e+001 3.701625e+001 -1.045247e+001 -1.783828e+002
1772135625 -1.847053e+001 -8.563189e+001 -6.197556e+001 -2.584760e+000 -6.714752e+001 1.108394e+002 -1.086236e+001 1.236493e+002
1789010250 -1.931439e+001 -1.740326e+002 -6.733246e+001 -8.634248e+001 -6.949483e+001 -1.210273e+002 -1.124176e+001 6.211446e+001
1805884875 -1.784636e+001 1.013424e+002 -6.107655e+001 1.740804e+002 -6.586449e+001 1.366450e+002 -1.120443e+001 -8.216301e-001
1822759500 -1.686524e+001 2.927102e+001 -5.768819e+001 5.903778e+001 -7.397001e+001 -4.362854e+001 -1.069716e+001 -6.183363e+001
1839634125 -1.765075e+001 -4.107209e+001 -5.734219e+001 -1.820329e+001 -7.246321e+001 -1.617242e+002 -1.014467e+001 -1.192651e+002
1856508750 -1.956311e+001 -1.243744e+002 -5.856172e+001 -1.123546e+002 -7.062460e+001 1.617897e+002 -9.848292e+000 -1.744809e+002
1873383375 -1.937541e+001 1.405781e+002 -5.978138e+001 1.458836e+002 -6.774165e+001 -3.246693e+001 -9.889616e+000 1.303393e+002
1890258000 -1.761332e+001 5.975316e+001 -6.247819e+001 3.664926e+001 -7.440997e+001 -1.743172e+002 -1.017638e+001 7.355010e+001
1907132625 -1.731255e+001 -1.274858e+001 -6.128228e+001 -4.282251e+001 -7.181208e+001 1.436938e+002 -1.047509e+001 1.507812e+001
1924007250 -1.828887e+001 -9.143983e+001 -6.012240e+001 -1.378146e+002 -7.171799e+001 -1.766547e+002 -1.062048e+001 -4.441266e+001
1940881875 -1.833892e+001 1.793349e+002 -6.000735e+001 1.440777e+002 -6.848377e+001 1.725879e+002 -1.063468e+001 -1.030171e+002
1957756500 -1.664800e+001 9.739338e+001 -5.949900e+001 5.624617e+001 -7.622473e+001 1.769625e+002 -1.073468e+001 -1.606053e+002
1974631125 -1.566605e+001 2.776105e+001 -5.891225e+001 -4.246249e+001 -7.098988e+001 -1.735133e+001 -1.100399e+001 1.406750e+002
1991505750 -1.609022e+001 -4.035775e+001 -5.806668e+001 -1.252248e+002 -7.471489e+001 -1.464835e+002 -1.124134e+001 8.039610e+001
2008380375 -1.749908e+001 -1.164553e+002 -5.655814e+001 1.360977e+002 -7.382981e+001 -1.480063e+002 -1.124413e+001 1.886821e+001
2025255000 -1.790085e+001 1.581423e+002 -5.777452e+001 2.217522e+001 -7.009855e+001 1.130709e+002 -1.091393e+001 -4.143287e+001
2042129625 -1.683636e+001 8.020874e+001 -5.401836e+001 -4.564114e+001 -8.281754e+001 -1.099849e+002 -1.053293e+001 -9.947696e+001
2059004250 -1.650981e+001 1.133664e+001 -5.567115e+001 -1.484083e+002 -7.090888e+001 -2.535651e+001 -1.031514e+001 -1.560619e+002
2075878875 -1.760019e+001 -5.882158e+001 -5.650231e+001 1.299625e+002 -6.921004e+001 -1.601054e+002 -1.039782e+001 1.474120e+002
2092753500 -1.922525e+001 -1.409476e+002 -5.595137e+001 1.595424e+001 -8.265865e+001 1.628378e+002 -1.064180e+001 8.930664e+001
2109628125 -1.872341e+001 1.308119e+002 -5.597282e+001 -5.670959e+001 -7.314562e+001 7.612396e+001 -1.087489e+001 2.923840e+001
2126502750 -1.730649e+001 5.519520e+001 -5.593394e+001 -1.473544e+002 -8.011826e+001 -3.786014e+001 -1.089965e+001 -3.092108e+001
2143377375 -1.708542e+001 -1.383995e+001 -5.686785e+001 1.083872e+002 -7.293462e+001 6.417190e+001 -1.082139e+001 -8.993964e+001
2160252000 -1.814376e+001 -8.799861e+001 -5.558109e+001 1.871758e+001 -6.978921e+001 1.593262e+002 -1.085008e+001 -1.478021e+002
2177126625 -1.862572e+001 -1.732507e+002 -5.417986e+001 -7.094397e+001 -7.557104e+001 -5.948900e+001 -1.103577e+001 1.536591e+002
2194001250 -1.741711e+001 1.036417e+002 -5.464727e+001 -1.650291e+002 -7.018394e+001 1.284719e+002 -1.126545e+001 9.374799e+001
2210875875 -1.636048e+001 3.146368e+001 -5.306148e+001 9.644837e+001 -6.811720e+001 1.739502e+002 -1.124920e+001 3.279435e+001
2227750500 -1.673933e+001 -3.921756e+001 -5.073233e+001 1.185573e+001 -7.674478e+001 2.727044e+001 -1.104972e+001 -2.689514e+001
2244625125 -1.792883e+001 -1.187856e+002 -5.347777e+001 -6.772491e+001 -7.407244e+001 7.196803e+001 -1.082346e+001 -8.502003e+001
2261499750 -1.785761e+001 1.539196e+002 -5.218521e+001 1.776724e+002 -6.974333e+001 -1.558064e+001 -1.071794e+001 -1.419204e+002
2278374375 -1.666597e+001 7.529411e+001 -5.435232e+001 9.357875e+001 -7.131039e+001 9.865689e+001 -1.079776e+001 1.599304e+002
2295249000 -1.653540e+001 4.669140e+000 -5.266388e+001 -5.255616e+000 -6.637747e+001 4.178122e+001 -1.081307e+001 1.002654e+002
2312123625 -1.795651e+001 -6.968642e+001 -5.229417e+001 -8.746497e+001 -8.571743e+001 -1.165636e+002 -1.059986e+001 4.039254e+001
2328998250 -1.953508e+001 -1.602490e+002 -5.230805e+001 -1.788097e+002 -7.653889e+001 1.305370e+002 -1.028637e+001 -1.754640e+001
2345872875 -1.830612e+001 1.091314e+002 -5.307798e+001 7.759150e+001 -7.264164e+001 -4.802528e+001 -1.015318e+001 -7.251579e+001
2362747500 -1.696827e+001 3.385892e+001 -5.234742e+001 2.502645e+000 -7.109750e+001 1.156388e+002 -1.046349e+001 -1.265624e+002
2379622125 -1.733147e+001 -3.792282e+001 -5.060800e+001 -9.365382e+001 -6.792981e+001 -4.985413e+001 -1.131255e+001 1.772153e+002
2396496750 -1.874353e+001 -1.195150e+002 -5.036148e+001 1.686297e+002 -6.695726e+001 -4.853048e+001 -1.241002e+001 1.142619e+002
2413371375 -1.843450e+001 1.497532e+002 -4.953877e+001 7.471552e+001 -7.033091e+001 1.482577e+002 -1.266710e+001 4.490396e+001
2430246000 -1.666877e+001 7.079286e+001 -4.955748e+001 -2.228508e+001 -6.843994e+001 8.692616e+001 -1.171584e+001 -2.157222e+001
2447120625 -1.584423e+001 2.141552e+000 -4.910200e+001 -1.083859e+002 -7.048338e+001 8.474347e+001 -1.059962e+001 -7.994656e+001
2463995250 -1.649895e+001 -6.813572e+001 -4.919001e+001 1.566790e+002 -6.850356e+001 3.979634e+001 -1.000603e+001 -1.331179e+002
2480869875 -1.758415e+001 -1.481323e+002 -5.008037e+001 6.118178e+001 -6.710704e+001 1.731722e+002 -1.012127e+001 1.746566e+002
2497744500 -1.693107e+001 1.283185e+002 -4.873794e+001 -3.341322e+001 -6.621801e+001 1.167157e+002 -1.074672e+001 1.192735e+002
2514619125 -1.578862e+001 5.590048e+001 -4.853051e+001 -1.182979e+002 -6.779066e+001 -1.436921e+002 -1.138265e+001 5.828640e+001
2531493750 -1.577332e+001 -1.087405e+001 -4.740419e+001 1.511739e+002 -6.775507e+001 -5.495151e+001 -1.139044e+001 -5.390414e+000
2548368375 -1.719238e+001 -8.200194e+001 -4.757520e+001 6.399807e+001 -8.599708e+001 -1.474426e+002 -1.081823e+001 -6.596221e+001
2565243000 -1.840029e+001 -1.674776e+002 -4.742558e+001 -3.049515e+001 -7.127546e+001 -1.299348e+002 -1.035195e+001 -1.212394e+002
