!Agilent Technologies,N5230A,MY45000845,A.06.01.05
!Agilent N5230A: A.06.01.05
!Date: Friday, July 13, 2012 16:33:53
!Correction: S11(Full 2 Port(1,2)) S21(Full 2 Port(1,2)) S12(Full 2 Port(1,2)) S22(Full 2 Port(1,2)) 
!S2P File: Measurements: S11, S21, S12, S22:
# Hz S  dB   R 50
300000 -1.481276e-001 1.777789e+002 -5.941129e+001 -8.297697e+001 -5.397075e+001 1.556300e+002 -1.025628e-001 1.788909e+002
17174625 -4.440332e-001 7.019578e+001 -7.365060e+001 -1.436806e+002 -6.479765e+001 -5.393964e+001 -3.289465e-001 1.310654e+002
34049250 -4.327779e-001 -3.625849e+001 -7.032679e+001 5.394685e+001 -7.049770e+001 -2.289836e+001 -3.924538e-001 8.444547e+001
50923875 -4.381104e-001 -1.412205e+002 -7.476468e+001 -1.006295e+002 -7.089855e+001 -8.059407e+000 -3.988334e-001 3.825849e+001
67798500 -4.973694e-001 1.153651e+002 -7.844476e+001 -2.768335e+001 -8.235886e+001 1.348723e+002 -3.572797e-001 -7.670619e+000
84673125 -4.934283e-001 1.017813e+001 -7.706606e+001 -7.651313e+001 -6.974554e+001 3.595735e+001 -3.445892e-001 -5.358348e+001
101547750 -5.399979e-001 -9.626342e+001 -7.267686e+001 2.398675e+001 -7.190993e+001 1.372726e+002 -3.571705e-001 -9.954652e+001
118422375 -6.751799e-001 1.583467e+002 -6.365971e+001 -3.003275e+001 -6.737034e+001 -5.958142e+001 -4.202580e-001 -1.457264e+002
135297000 -7.679104e-001 5.260201e+001 -7.282718e+001 2.576295e+001 -6.729053e+001 -7.087657e+001 -4.884000e-001 1.681117e+002
152171625 -7.816679e-001 -5.428976e+001 -8.322164e+001 -1.560344e+002 -6.860545e+001 -4.726320e+001 -5.564177e-001 1.220081e+002
169046250 -8.159324e-001 -1.593221e+002 -7.573330e+001 8.783517e+001 -7.185468e+001 7.042072e+001 -5.661801e-001 7.588831e+001
185920875 -8.745860e-001 9.667040e+001 -8.019341e+001 1.757627e+002 -6.636556e+001 -1.563956e+002 -5.778536e-001 2.975450e+001
202795500 -9.182169e-001 -9.672077e+000 -7.755688e+001 -1.010874e+002 -7.613375e+001 -4.462299e+000 -5.737419e-001 -1.648887e+001
219670125 -9.489787e-001 -1.165474e+002 -6.557864e+001 -4.065967e+001 -7.197260e+001 1.028669e+002 -6.023200e-001 -6.303156e+001
236544750 -1.023646e+000 1.396016e+002 -7.076036e+001 8.466940e+001 -7.403954e+001 -8.451345e+000 -6.632000e-001 -1.096384e+002
253419375 -1.049080e+000 3.551130e+001 -7.106635e+001 1.273863e+002 -7.684496e+001 6.081122e+001 -7.465388e-001 -1.563175e+002
270294000 -1.025384e+000 -7.071425e+001 -6.575283e+001 -1.730330e+002 -6.924835e+001 1.785125e+002 -8.121513e-001 1.572904e+002
287168625 -1.050046e+000 -1.756561e+002 -6.850102e+001 1.310998e+001 -7.474637e+001 2.941760e+001 -8.352557e-001 1.111155e+002
304043250 -1.130545e+000 8.015488e+001 -7.465384e+001 -1.138113e+002 -6.822992e+001 1.264708e+002 -7.991681e-001 6.536022e+001
320917875 -1.204684e+000 -2.716264e+001 -7.753989e+001 -1.091112e+002 -7.553073e+001 -1.070021e+002 -7.534739e-001 1.968859e+001
337792500 -1.274649e+000 -1.347587e+002 -7.606808e+001 -1.377021e+002 -6.922154e+001 7.560184e+001 -7.160715e-001 -2.602023e+001
354667125 -1.329973e+000 1.210483e+002 -7.084469e+001 -1.275791e+002 -7.018550e+001 -9.968436e+001 -7.187533e-001 -7.190215e+001
371541750 -1.326726e+000 1.665977e+001 -6.485690e+001 6.288854e+001 -7.119659e+001 4.382521e+001 -7.802253e-001 -1.180311e+002
388416375 -1.285021e+000 -8.947417e+001 -7.237236e+001 -1.348187e+002 -6.860246e+001 -7.045638e+001 -8.521296e-001 -1.641895e+002
405291000 -1.255693e+000 1.669030e+002 -6.537203e+001 -1.308480e+002 -8.229977e+001 -1.706182e+001 -9.105798e-001 1.495643e+002
422165625 -1.288826e+000 6.398102e+001 -6.539928e+001 6.453900e+001 -7.235389e+001 7.782801e+001 -9.153447e-001 1.035333e+002
439040250 -1.344592e+000 -4.332122e+001 -7.101139e+001 1.597620e+001 -6.869748e+001 6.452250e+001 -8.629153e-001 5.762038e+001
455914875 -1.357993e+000 -1.508647e+002 -6.701323e+001 3.651890e+001 -6.908263e+001 1.083884e+002 -8.023618e-001 1.183774e+001
472789500 -1.375753e+000 1.057668e+002 -6.708884e+001 4.646965e+000 -7.000694e+001 2.447326e+001 -7.771163e-001 -3.426236e+001
489664125 -1.332329e+000 1.937214e+000 -8.196275e+001 -1.417580e+002 -6.777317e+001 4.110567e+001 -8.324777e-001 -8.083839e+001
506538750 -1.288652e+000 -1.045268e+002 -7.347979e+001 9.384039e+000 -6.804712e+001 8.189030e+001 -9.450873e-001 -1.276699e+002
523413375 -1.273977e+000 1.516462e+002 -7.169437e+001 -1.653034e+002 -7.773748e+001 -1.557675e+002 -1.092738e+000 -1.746802e+002
540288000 -1.366753e+000 4.865405e+001 -6.772758e+001 3.490692e+001 -6.957250e+001 -7.385667e+001 -1.186970e+000 1.386004e+002
557162625 -1.563376e+000 -5.990473e+001 -6.580913e+001 -1.377746e+001 -7.225577e+001 1.445306e+002 -1.208727e+000 9.233892e+001
574037250 -1.692676e+000 -1.697872e+002 -8.580201e+001 7.529990e+001 -7.538141e+001 -1.330032e+002 -1.153545e+000 4.658122e+001
590911875 -1.723433e+000 8.558450e+001 -8.128819e+001 5.353924e+001 -6.808808e+001 2.597960e+001 -1.073768e+000 1.271586e+000
607786500 -1.712816e+000 -1.896893e+001 -6.796535e+001 3.962723e+001 -8.917303e+001 4.621653e+001 -1.032166e+000 -4.400097e+001
624661125 -1.644666e+000 -1.248663e+002 -6.617764e+001 -9.395831e+001 -7.922894e+001 1.232572e+002 -1.053537e+000 -8.958620e+001
641535750 -1.561375e+000 1.328154e+002 -6.714441e+001 -1.502246e+002 -7.046644e+001 -2.765381e+001 -1.136341e+000 -1.357077e+002
658410375 -1.587133e+000 3.099730e+001 -6.757598e+001 1.505692e+002 -7.473880e+001 -1.166592e+002 -1.272800e+000 1.775378e+002
675285000 -1.726924e+000 -7.712687e+001 -6.908681e+001 1.746625e+002 -7.305557e+001 6.655991e+001 -1.358020e+000 1.303708e+002
692159625 -1.766729e+000 1.736616e+002 -8.095046e+001 -2.373637e+001 -6.886880e+001 4.832492e+001 -1.370990e+000 8.336189e+001
709034250 -1.758998e+000 6.978460e+001 -6.948971e+001 -1.030035e+002 -7.539041e+001 -1.453046e+002 -1.304123e+000 3.704958e+001
725908875 -1.744204e+000 -3.431250e+001 -7.359166e+001 -1.589688e+002 -7.168857e+001 8.641061e+001 -1.210149e+000 -8.681634e+000
742783500 -1.695677e+000 -1.402841e+002 -6.845583e+001 8.283531e+001 -6.855299e+001 7.186281e+001 -1.136924e+000 -5.372750e+001
759658125 -1.606195e+000 1.174096e+002 -6.948477e+001 4.866198e+001 -7.699152e+001 8.893354e+001 -1.128675e+000 -9.868185e+001
776532750 -1.649857e+000 1.516946e+001 -7.119268e+001 1.704533e+002 -7.247943e+001 -4.418050e+001 -1.172808e+000 -1.438839e+002
793407375 -1.785591e+000 -9.342515e+001 -7.205077e+001 -8.872503e+001 -6.505628e+001 -1.110062e+002 -1.265053e+000 1.702033e+002
810282000 -1.823315e+000 1.585429e+002 -6.986750e+001 -1.222170e+002 -6.658727e+001 -1.081655e+002 -1.321314e+000 1.234080e+002
827156625 -1.821969e+000 5.604464e+001 -7.092444e+001 -9.159444e+001 -7.347699e+001 1.722369e+002 -1.334532e+000 7.612781e+001
844031250 -1.890186e+000 -4.812846e+001 -6.833504e+001 -1.984943e+001 -7.265812e+001 3.273135e+001 -1.280227e+000 2.891665e+001
860905875 -1.878012e+000 -1.555205e+002 -7.215647e+001 2.266378e+001 -7.617799e+001 9.589658e+001 -1.214818e+000 -1.748611e+001
877780500 -1.790879e+000 1.008418e+002 -6.984473e+001 -1.443708e+002 -7.002568e+001 -8.242392e+001 -1.191601e+000 -6.299043e+001
894655125 -1.823486e+000 -2.726375e+000 -7.180330e+001 1.052708e+002 -7.618034e+001 -9.828528e+000 -1.216102e+000 -1.080656e+002
911529750 -1.938502e+000 -1.123696e+002 -7.870341e+001 1.418893e+002 -7.185725e+001 -1.784722e+002 -1.329264e+000 -1.532114e+002
928404375 -1.921497e+000 1.398336e+002 -7.027824e+001 8.617802e+001 -7.009023e+001 1.611140e+002 -1.443839e+000 1.609760e+002
945279000 -1.881961e+000 3.838163e+001 -6.880339e+001 -1.313139e+002 -7.627105e+001 1.745329e+002 -1.528781e+000 1.144132e+002
962153625 -1.990664e+000 -6.469867e+001 -7.137083e+001 -1.542930e+002 -7.782870e+001 6.491264e+001 -1.527700e+000 6.733643e+001
979028250 -2.048074e+000 -1.710284e+002 -7.095183e+001 -7.380219e+001 -6.999821e+001 -1.721463e+002 -1.432925e+000 2.028713e+001
995902875 -2.034667e+000 8.583175e+001 -6.326674e+001 1.522686e+002 -6.928999e+001 1.150279e+002 -1.323161e+000 -2.632467e+001
1012777500 -2.151983e+000 -1.825752e+001 -6.480002e+001 9.712875e+001 -6.966989e+001 -9.626917e+001 -1.236046e+000 -7.226549e+001
1029652125 -2.307896e+000 -1.282984e+002 -6.867897e+001 1.063398e+002 -7.916698e+001 9.190318e+001 -1.205254e+000 -1.176217e+002
1046526750 -2.211797e+000 1.238366e+002 -7.422919e+001 -1.396340e+002 -6.467292e+001 -1.718389e+002 -1.249712e+000 -1.630892e+002
1063401375 -2.088875e+000 2.140955e+001 -6.559924e+001 1.140127e+002 -7.585831e+001 1.111766e+002 -1.332908e+000 1.510881e+002
1080276000 -2.019184e+000 -8.285213e+001 -7.048562e+001 9.838741e+001 -8.375130e+001 9.254080e+001 -1.407882e+000 1.046717e+002
1097150625 -1.919537e+000 1.718643e+002 -6.718219e+001 1.195237e+002 -6.819761e+001 1.357115e+002 -1.425010e+000 5.799586e+001
1114025250 -1.843126e+000 6.952730e+001 -6.874826e+001 1.778282e+002 -6.795831e+001 -5.688187e+001 -1.396743e+000 1.169016e+001
1130899875 -1.958075e+000 -3.590798e+001 -6.813715e+001 3.653364e+000 -6.369150e+001 2.448067e+001 -1.338822e+000 -3.403509e+001
1147774500 -2.134129e+000 -1.472982e+002 -7.217304e+001 -8.602030e+001 -7.531670e+001 3.093706e+000 -1.288919e+000 -7.911411e+001
1164649125 -2.145949e+000 1.063760e+002 -6.708695e+001 5.119476e+001 -7.298238e+001 4.845094e+001 -1.313246e+000 -1.240597e+002
1181523750 -2.193228e+000 5.565259e+000 -6.728206e+001 -2.834063e+001 -7.554044e+001 1.233746e+002 -1.414128e+000 -1.695941e+002
1198398375 -2.332189e+000 -9.888507e+001 -6.805157e+001 1.590558e+001 -8.614202e+001 2.828984e+001 -1.555439e+000 1.441158e+002
1215273000 -2.268835e+000 1.550825e+002 -6.813739e+001 -7.314040e+001 -6.371468e+001 -1.389478e+002 -1.687441e+000 9.682411e+001
1232147625 -2.151894e+000 5.319531e+001 -7.680592e+001 -9.701743e+001 -6.724034e+001 1.012926e+002 -1.755611e+000 4.903889e+001
1249022250 -2.241198e+000 -5.180035e+001 -6.514854e+001 1.375439e+002 -7.559287e+001 1.050867e+002 -1.742595e+000 1.543688e+000
1265896875 -2.321438e+000 -1.629529e+002 -7.390072e+001 -8.304969e+000 -7.002328e+001 -1.346253e+002 -1.660635e+000 -4.478817e+001
1282771500 -2.227910e+000 9.092150e+001 -7.132266e+001 -1.151220e+002 -7.018483e+001 7.016251e+001 -1.565517e+000 -8.997568e+001
1299646125 -2.250847e+000 -1.084023e+001 -6.686377e+001 9.650672e+001 -6.463555e+001 -1.753867e+002 -1.497771e+000 -1.344643e+002
1316520750 -2.373844e+000 -1.167605e+002 -7.606215e+001 1.424443e+001 -6.689976e+001 1.238374e+001 -1.485274e+000 -1.791701e+002
1333395375 -2.316611e+000 1.374140e+002 -7.551043e+001 8.466708e+001 -6.535075e+001 6.162124e+001 -1.542076e+000 1.352069e+002
1350270000 -2.254594e+000 3.586332e+001 -8.669994e+001 2.168350e+001 -6.682167e+001 -5.922038e+000 -1.618827e+000 8.827596e+001
1367144625 -2.398851e+000 -6.961478e+001 -7.265426e+001 -1.408205e+002 -7.156953e+001 -1.231066e+001 -1.669843e+000 4.041773e+001
1384019250 -2.466007e+000 1.798195e+002 -7.582951e+001 8.023415e+001 -7.136739e+001 8.027303e+001 -1.667479e+000 -7.433205e+000
1400893875 -2.332384e+000 7.559097e+001 -7.248612e+001 1.351952e+001 -7.037368e+001 3.900244e+000 -1.617508e+000 -5.431853e+001
1417768500 -2.358755e+000 -2.540886e+001 -6.755522e+001 8.939036e+001 -7.069209e+001 1.715769e+001 -1.586590e+000 -9.999261e+001
1434643125 -2.445020e+000 -1.316385e+002 -6.041834e+001 2.125147e+001 -7.104106e+001 -1.117040e+002 -1.571594e+000 -1.445165e+002
1451517750 -2.329443e+000 1.228066e+002 -7.166296e+001 -8.166050e+001 -7.189113e+001 -1.538299e+002 -1.620822e+000 1.712458e+002
1468392375 -2.264651e+000 2.168548e+001 -6.873032e+001 1.539815e+002 -6.504791e+001 9.333996e+001 -1.706262e+000 1.264535e+002
1485267000 -2.437249e+000 -8.533988e+001 -7.410001e+001 -2.526968e+001 -6.947682e+001 1.120817e+002 -1.813997e+000 8.064365e+001
1502141625 -2.453700e+000 1.628048e+002 -7.074399e+001 -4.231702e+001 -6.675340e+001 2.904673e+001 -1.883365e+000 3.358036e+001
1519016250 -2.296857e+000 5.963545e+001 -7.604829e+001 -1.485211e+002 -7.026193e+001 -4.918078e+001 -1.879369e+000 -1.403547e+001
1535890875 -2.400609e+000 -4.026280e+001 -6.870441e+001 -1.021390e+002 -7.312467e+001 6.879910e+001 -1.801236e+000 -6.148388e+001
1552765500 -2.631325e+000 -1.474881e+002 -7.165686e+001 5.328196e+001 -6.984343e+001 6.555462e+001 -1.689034e+000 -1.080160e+002
1569640125 -2.538673e+000 1.049595e+002 -7.499563e+001 1.887688e+001 -7.856912e+001 1.292865e+002 -1.616844e+000 -1.537690e+002
1586514750 -2.460946e+000 2.691665e+000 -6.489140e+001 1.224572e+001 -6.562518e+001 -2.637192e+001 -1.600467e+000 1.609284e+002
1603389375 -2.672836e+000 -1.042560e+002 -6.782391e+001 -1.178603e+002 -6.787785e+001 -1.663714e+002 -1.639749e+000 1.158355e+002
1620264000 -2.672525e+000 1.446436e+002 -6.657278e+001 -1.729973e+002 -6.692017e+001 1.791595e+001 -1.713277e+000 7.055186e+001
1637138625 -2.472795e+000 4.176992e+001 -6.728323e+001 8.881502e+001 -7.765163e+001 5.336753e+001 -1.769942e+000 2.511467e+001
1654013250 -2.527416e+000 -5.833905e+001 -7.592243e+001 7.452873e+001 -7.042068e+001 5.725185e+001 -1.791363e+000 -2.029764e+001
1670887875 -2.668848e+000 -1.642154e+002 -7.139780e+001 -9.824144e+000 -7.481663e+001 7.731293e+001 -1.759784e+000 -6.542373e+001
1687762500 -2.529135e+000 9.022675e+001 -7.294816e+001 -1.100420e+002 -6.915646e+001 -4.025016e+001 -1.722681e+000 -1.104328e+002
1704637125 -2.446807e+000 -1.139437e+001 -6.553211e+001 -1.341588e+002 -7.259065e+001 -1.554711e+002 -1.691988e+000 -1.555880e+002
1721511750 -2.608339e+000 -1.173383e+002 -8.022115e+001 4.685325e+001 -7.141656e+001 8.302055e+001 -1.713538e+000 1.587555e+002
1738386375 -2.651367e+000 1.337195e+002 -6.906202e+001 7.766673e+001 -7.307957e+001 -6.595953e+001 -1.780104e+000 1.119480e+002
1755261000 -2.561262e+000 3.092195e+001 -7.030643e+001 -1.011395e+002 -6.759193e+001 -5.985313e+001 -1.861945e+000 6.437682e+001
1772135625 -2.687806e+000 -7.129417e+001 -7.509984e+001 1.553310e+002 -6.297768e+001 -7.995153e+001 -1.939720e+000 1.652785e+001
1789010250 -2.848589e+000 -1.795896e+002 -6.889442e+001 -1.107630e+002 -6.144773e+001 -1.345195e+002 -1.946732e+000 -3.078641e+001
1805884875 -2.669292e+000 7.380091e+001 -6.543826e+001 2.661352e+001 -6.421568e+001 6.829760e+001 -1.898645e+000 -7.708005e+001
1822759500 -2.581536e+000 -2.923142e+001 -7.434758e+001 6.009746e+001 -6.495528e+001 5.920631e+001 -1.841746e+000 -1.224367e+002
1839634125 -2.735823e+000 -1.371453e+002 -6.695477e+001 -1.377698e+001 -7.103841e+001 -2.952940e+001 -1.783695e+000 -1.673129e+002
1856508750 -2.690717e+000 1.138484e+002 -6.537325e+001 -7.223988e+001 -6.561499e+001 1.525372e+002 -1.772231e+000 1.475950e+002
1873383375 -2.574358e+000 1.213722e+001 -7.230700e+001 1.245972e+002 -6.587672e+001 1.481399e+002 -1.811370e+000 1.019667e+002
1890258000 -2.741454e+000 -8.934763e+001 -7.206405e+001 7.412048e+001 -7.205913e+001 -9.873679e+001 -1.857355e+000 5.558500e+001
1907132625 -2.887752e+000 1.646827e+002 -6.918422e+001 1.383605e+001 -6.376762e+001 -2.188446e+001 -1.901637e+000 8.792047e+000
1924007250 -2.785640e+000 6.043856e+001 -6.608630e+001 -8.586704e+001 -6.329699e+001 -8.190437e+001 -1.930788e+000 -3.789089e+001
1940881875 -2.806880e+000 -4.341813e+001 -6.892741e+001 -1.523336e+002 -7.031297e+001 -1.187560e+002 -1.922166e+000 -8.409641e+001
1957756500 -2.955767e+000 -1.539774e+002 -8.602853e+001 -6.557836e+001 -7.411433e+001 1.427179e+002 -1.893762e+000 -1.296187e+002
1974631125 -2.797929e+000 9.621116e+001 -6.934254e+001 5.772670e+001 -7.082249e+001 9.374658e+001 -1.911816e+000 -1.752180e+002
1991505750 -2.649007e+000 -5.820144e+000 -6.655604e+001 1.171487e+001 -6.878860e+001 -2.830912e+001 -1.939639e+000 1.389417e+002
2008380375 -2.789321e+000 -1.085449e+002 -7.883289e+001 -1.447782e+002 -7.390031e+001 -1.126196e+002 -1.998763e+000 9.247173e+001
2025255000 -2.880719e+000 1.453463e+002 -6.619867e+001 1.374517e+002 -6.357865e+001 -1.725836e+002 -2.052488e+000 4.543958e+001
2042129625 -2.748913e+000 4.314600e+001 -7.491978e+001 1.077796e+002 -5.995435e+001 1.325487e+002 -2.070658e+000 -1.617174e+000
2059004250 -2.797982e+000 -5.827505e+001 -6.559521e+001 4.902091e+001 -6.459196e+001 3.707793e+001 -2.068426e+000 -4.813952e+001
2075878875 -2.978691e+000 -1.658435e+002 -6.478683e+001 -6.571284e+001 -5.931369e+001 -3.524477e+001 -2.030720e+000 -9.407618e+001
2092753500 -2.896278e+000 8.709460e+001 -6.317315e+001 -1.518700e+002 -6.618759e+001 -9.522659e+001 -1.984378e+000 -1.395979e+002
2109628125 -2.820334e+000 -1.493492e+001 -7.102020e+001 -1.289899e+002 -7.046019e+001 1.463834e+002 -1.962624e+000 1.749565e+002
2126502750 -3.010731e+000 -1.200157e+002 -6.908347e+001 9.623910e+001 -6.619593e+001 5.638557e+001 -1.973867e+000 1.289636e+002
2143377375 -3.045396e+000 1.313607e+002 -6.232779e+001 2.409636e+001 -6.527632e+001 3.136762e+001 -2.007608e+000 8.226633e+001
2160252000 -2.872911e+000 2.692967e+001 -6.488315e+001 -5.506542e+001 -6.147684e+001 -3.394777e+001 -2.048434e+000 3.524528e+001
2177126625 -2.916763e+000 -7.740080e+001 -6.161736e+001 -1.592893e+002 -6.519052e+001 -1.129681e+002 -2.070049e+000 -1.144265e+001
2194001250 -3.034906e+000 1.735247e+002 -6.223394e+001 1.690082e+002 -6.081630e+001 1.340770e+002 -2.081746e+000 -5.749568e+001
2210875875 -2.929479e+000 6.747001e+001 -6.553197e+001 3.276806e+001 -6.493594e+001 2.317795e+001 -2.072174e+000 -1.028823e+002
2227750500 -2.928814e+000 -3.459973e+001 -6.238442e+001 -1.989970e+001 -6.662334e+001 4.175017e+001 -2.055790e+000 -1.481055e+002
2244625125 -3.131269e+000 -1.408205e+002 -6.077620e+001 -6.851622e+001 -6.290936e+001 -8.572920e+001 -2.046229e+000 1.662305e+002
2261499750 -3.103907e+000 1.118303e+002 -6.333656e+001 -1.322758e+002 -5.888388e+001 -1.600137e+002 -2.047168e+000 1.200133e+002
2278374375 -2.952394e+000 8.996202e+000 -7.727370e+001 7.539814e+001 -6.060441e+001 1.538406e+002 -2.044751e+000 7.331548e+001
2295249000 -3.035409e+000 -9.611185e+001 -6.342027e+001 7.344580e+001 -6.019393e+001 5.077448e+001 -2.071925e+000 2.681936e+001
2312123625 -3.067116e+000 1.545686e+002 -6.070433e+001 -5.314388e+000 -6.060821e+001 -3.072228e+001 -2.095210e+000 -1.867027e+001
2328998250 -2.877397e+000 5.101328e+001 -7.083305e+001 -1.296454e+002 -6.510632e+001 -1.000535e+002 -2.132004e+000 -6.307656e+001
2345872875 -2.920273e+000 -4.905791e+001 -6.223619e+001 1.733144e+002 -6.300177e+001 -1.637455e+002 -2.171114e+000 -1.066110e+002
2362747500 -3.179128e+000 -1.543509e+002 -5.911785e+001 1.108649e+002 -5.988387e+001 1.275108e+002 -2.228814e+000 -1.503250e+002
2379622125 -3.173302e+000 9.903097e+001 -6.329800e+001 4.737794e+001 -5.887877e+001 3.749101e+001 -2.304987e+000 1.647575e+002
2396496750 -3.096932e+000 -3.646165e+000 -5.847712e+001 -3.992523e+001 -6.213269e+001 -3.913311e+001 -2.375058e+000 1.177688e+002
2413371375 -3.265009e+000 -1.104531e+002 -5.972630e+001 -1.046537e+002 -6.137643e+001 -1.271057e+002 -2.388427e+000 6.880448e+001
2430246000 -3.269562e+000 1.378421e+002 -5.929001e+001 1.609538e+002 -5.951606e+001 1.692969e+002 -2.329088e+000 1.941488e+001
2447120625 -3.011053e+000 3.274998e+001 -6.322362e+001 1.016909e+002 -6.271334e+001 8.694697e+001 -2.232265e+000 -2.891630e+001
2463995250 -3.026861e+000 -6.875871e+001 -5.855615e+001 3.440153e+001 -6.216298e+001 9.155093e+000 -2.145372e+000 -7.502650e+001
2480869875 -3.222616e+000 -1.741476e+002 -6.082027e+001 -7.202346e+001 -5.882272e+001 -6.698654e+001 -2.084796e+000 -1.192394e+002
2497744500 -3.143764e+000 8.198184e+001 -6.213546e+001 -1.245919e+002 -5.878988e+001 -1.369738e+002 -2.074723e+000 -1.626494e+002
2514619125 -3.129808e+000 -1.817258e+001 -5.827972e+001 1.679210e+002 -5.803122e+001 1.494078e+002 -2.125998e+000 1.532592e+002
2531493750 -3.384265e+000 -1.242003e+002 -5.570335e+001 8.158272e+001 -5.587232e+001 9.765341e+001 -2.218228e+000 1.074199e+002
2548368375 -3.376626e+000 1.248525e+002 -5.856368e+001 -1.135845e+001 -5.533412e+001 -1.135686e+001 -2.316781e+000 5.959320e+001
2565243000 -3.147132e+000 1.999286e+001 -5.674664e+001 -7.901849e+001 -5.715263e+001 -8.725918e+001 -2.366552e+000 1.066353e+001
