!Agilent Technologies,N5230A,MY45000845,A.06.01.05
!Agilent N5230A: A.06.01.05
!Date: Friday, July 13, 2012 16:32:47
!Correction: S11(Full 2 Port(1,2)) S21(Full 2 Port(1,2)) S12(Full 2 Port(1,2)) S22(Full 2 Port(1,2)) 
!S2P File: Measurements: S11, S21, S12, S22:
# Hz S  dB   R 50
300000 -4.373627e+001 2.798936e+001 -7.136019e-002 -1.307874e+000 -4.945420e-002 -1.262592e+000 -4.409725e+001 1.206358e+001
17174625 -3.144312e+001 -5.005206e+001 -1.792895e-001 -6.850084e+001 -1.941713e-001 -6.845880e+001 -3.509033e+001 -4.547170e+000
34049250 -2.987895e+001 -1.305011e+002 -2.582148e-001 -1.350515e+002 -2.664376e-001 -1.350605e+002 -3.320070e+001 -1.873065e+001
50923875 -3.231234e+001 1.579272e+002 -3.204827e-001 1.584153e+002 -3.232236e-001 1.584271e+002 -3.023810e+001 -5.901315e+001
67798500 -4.005573e+001 1.103807e+002 -3.728091e-001 9.199739e+001 -3.730199e-001 9.199596e+001 -3.214308e+001 -1.222712e+002
84673125 -4.627765e+001 9.335326e+001 -4.227933e-001 2.556390e+001 -4.200041e-001 2.565041e+001 -4.357947e+001 1.488033e+002
101547750 -4.787059e+001 4.358149e+000 -4.609820e-001 -4.072966e+001 -4.595564e-001 -4.071764e+001 -4.275230e+001 -4.121325e+001
118422375 -4.249428e+001 -1.021556e+002 -4.976824e-001 -1.070722e+002 -4.965916e-001 -1.070845e+002 -4.556187e+001 -1.160835e+002
135297000 -4.058714e+001 -1.388748e+002 -5.311688e-001 -1.733624e+002 -5.392906e-001 -1.733898e+002 -4.305514e+001 -5.871498e+001
152171625 -3.826049e+001 -1.601533e+002 -5.681155e-001 1.203328e+002 -5.725688e-001 1.203861e+002 -3.734781e+001 -1.305648e+002
169046250 -3.698846e+001 1.621794e+002 -5.986926e-001 5.407709e+001 -5.831774e-001 5.407315e+001 -3.858649e+001 1.321412e+002
185920875 -4.901677e+001 1.359040e+002 -6.258500e-001 -1.222017e+001 -6.307726e-001 -1.228232e+001 -4.180853e+001 8.830575e+000
202795500 -3.841184e+001 -1.499105e+002 -6.577257e-001 -7.844280e+001 -6.573955e-001 -7.845547e+001 -4.119941e+001 -1.564104e+002
219670125 -3.512310e+001 1.501996e+002 -6.876796e-001 -1.447025e+002 -6.806751e-001 -1.446960e+002 -3.537701e+001 8.713384e+001
236544750 -4.283897e+001 9.410229e+001 -7.101142e-001 1.490691e+002 -7.197497e-001 1.490280e+002 -3.632695e+001 -1.227150e+000
253419375 -4.091165e+001 -1.746907e+002 -7.375680e-001 8.279402e+001 -7.428044e-001 8.283193e+001 -4.384392e+001 -1.359489e+002
270294000 -3.913121e+001 1.021674e+002 -7.619816e-001 1.658062e+001 -7.675543e-001 1.663560e+001 -3.873648e+001 8.394234e+001
287168625 -3.880028e+001 -5.633000e+001 -7.811158e-001 -4.970087e+001 -7.882974e-001 -4.962549e+001 -4.037333e+001 3.921730e+001
304043250 -3.131826e+001 -1.515274e+002 -8.172726e-001 -1.159245e+002 -8.096495e-001 -1.157862e+002 -3.384953e+001 5.683701e+001
320917875 -2.948783e+001 1.435566e+002 -8.417551e-001 1.779639e+002 -8.333513e-001 1.779860e+002 -2.866346e+001 3.097030e-001
337792500 -3.235456e+001 8.615221e+001 -8.458300e-001 1.117612e+002 -8.475112e-001 1.117631e+002 -2.898595e+001 -6.499979e+001
354667125 -3.873013e+001 1.326978e+001 -8.684158e-001 4.547024e+001 -8.710393e-001 4.549267e+001 -3.504975e+001 -1.242021e+002
371541750 -3.829116e+001 -1.031738e+002 -8.884572e-001 -2.073873e+001 -8.895745e-001 -2.071466e+001 -4.280451e+001 -1.150232e+002
388416375 -3.391441e+001 -1.727210e+002 -9.077699e-001 -8.690107e+001 -9.149668e-001 -8.688541e+001 -4.035151e+001 1.771315e+002
405291000 -3.452182e+001 1.427271e+002 -9.301241e-001 -1.531089e+002 -9.352013e-001 -1.531404e+002 -3.649159e+001 6.249150e+001
422165625 -3.936084e+001 1.509240e+002 -9.473659e-001 1.406657e+002 -9.553815e-001 1.406814e+002 -3.660106e+001 -3.811335e+001
439040250 -3.316586e+001 1.515939e+002 -9.677560e-001 7.446906e+001 -9.704134e-001 7.448033e+001 -3.798558e+001 1.714985e+002
455914875 -3.210104e+001 1.033331e+002 -9.914773e-001 8.251406e+000 -9.959799e-001 8.320018e+000 -3.220118e+001 5.835161e+001
472789500 -3.927799e+001 5.232094e+001 -9.985315e-001 -5.793663e+001 -1.015269e+000 -5.783824e+001 -3.304953e+001 -1.624038e+001
489664125 -4.324463e+001 1.335678e+002 -1.019756e+000 -1.241299e+002 -1.027864e+000 -1.240699e+002 -4.953972e+001 -5.972671e+001
506538750 -4.796444e+001 3.596070e+001 -1.038421e+000 1.696833e+002 -1.039544e+000 1.697443e+002 -3.932692e+001 1.124249e+001
523413375 -3.201012e+001 -1.425653e+002 -1.058750e+000 1.034333e+002 -1.061456e+000 1.035201e+002 -6.008780e+001 1.157496e+002
540288000 -2.585309e+001 1.540341e+002 -1.085582e+000 3.729067e+001 -1.084259e+000 3.735708e+001 -3.085823e+001 5.651269e+001
557162625 -2.473983e+001 9.004961e+001 -1.111829e+000 -2.876740e+001 -1.095853e+000 -2.877624e+001 -2.615846e+001 -9.662820e+000
574037250 -2.820714e+001 2.741438e+001 -1.115586e+000 -9.500593e+001 -1.104856e+000 -9.494961e+001 -2.739027e+001 -7.372603e+001
590911875 -3.603371e+001 -5.432949e+001 -1.125740e+000 -1.611525e+002 -1.122408e+000 -1.611884e+002 -3.466101e+001 -1.351496e+002
607786500 -3.896581e+001 -1.558468e+002 -1.139689e+000 1.326285e+002 -1.136190e+000 1.326427e+002 -4.811863e+001 1.350482e+002
624661125 -3.436770e+001 1.779556e+002 -1.151451e+000 6.650348e+001 -1.156804e+000 6.644995e+001 -3.571552e+001 6.482829e+001
641535750 -2.979863e+001 1.422325e+002 -1.168928e+000 2.667656e-001 -1.174771e+000 2.657721e-001 -2.766840e+001 6.771297e+000
658410375 -2.947062e+001 1.011011e+002 -1.185753e+000 -6.590680e+001 -1.189094e+000 -6.589971e+001 -2.636507e+001 -5.434649e+001
675285000 -3.125285e+001 8.545190e+001 -1.191609e+000 -1.321494e+002 -1.200605e+000 -1.320947e+002 -3.311721e+001 -1.187830e+002
692159625 -3.015627e+001 6.322952e+001 -1.212556e+000 1.617047e+002 -1.222317e+000 1.617539e+002 -3.638192e+001 1.152545e+001
709034250 -3.108037e+001 2.318569e+000 -1.230677e+000 9.557633e+001 -1.222782e+000 9.559756e+001 -2.965773e+001 -4.623697e+001
725908875 -3.304509e+001 -1.082741e+002 -1.243343e+000 2.935516e+001 -1.237800e+000 2.938734e+001 -3.122267e+001 -7.372759e+001
742783500 -2.909325e+001 1.570850e+002 -1.264156e+000 -3.681497e+001 -1.250049e+000 -3.679144e+001 -3.019059e+001 -8.541854e+001
759658125 -2.970732e+001 1.028560e+002 -1.272418e+000 -1.029442e+002 -1.271191e+000 -1.029639e+002 -3.131834e+001 -1.390079e+002
776532750 -3.485291e+001 9.434092e+001 -1.281687e+000 -1.691127e+002 -1.284837e+000 -1.690985e+002 -3.894027e+001 6.653825e+001
793407375 -3.058846e+001 9.690271e+001 -1.312404e+000 1.246628e+002 -1.301092e+000 1.247084e+002 -2.919675e+001 -4.473134e+001
810282000 -3.075381e+001 4.972908e+001 -1.314827e+000 5.859270e+001 -1.314216e+000 5.854659e+001 -2.925050e+001 -1.079354e+002
827156625 -4.556682e+001 -5.607184e-001 -1.335238e+000 -7.623246e+000 -1.328041e+000 -7.583082e+000 -4.274641e+001 -1.267465e+002
844031250 -3.530526e+001 1.164297e+002 -1.342718e+000 -7.380011e+001 -1.339229e+000 -7.381260e+001 -3.361720e+001 -7.197279e+001
860905875 -3.600711e+001 6.490290e+001 -1.350833e+000 -1.399500e+002 -1.356863e+000 -1.399584e+002 -3.494104e+001 -1.031330e+002
877780500 -4.083963e+001 1.401601e+002 -1.369005e+000 1.538957e+002 -1.373068e+000 1.538726e+002 -3.368847e+001 -7.476720e+001
894655125 -3.149025e+001 1.113053e+002 -1.372476e+000 8.769182e+001 -1.390571e+000 8.770390e+001 -2.949821e+001 -1.231161e+002
911529750 -3.084043e+001 8.225616e+001 -1.393282e+000 2.155872e+001 -1.397524e+000 2.157222e+001 -3.399541e+001 1.377434e+002
928404375 -3.086032e+001 7.143584e+001 -1.401453e+000 -4.463747e+001 -1.403283e+000 -4.460342e+001 -2.982841e+001 1.669849e+000
945279000 -2.960305e+001 4.271103e+001 -1.413846e+000 -1.107696e+002 -1.424220e+000 -1.107465e+002 -2.712802e+001 -6.797742e+001
962153625 -3.238580e+001 -1.113110e+001 -1.432074e+000 -1.769541e+002 -1.437852e+000 -1.768920e+002 -2.913490e+001 -1.063831e+002
979028250 -3.719197e+001 -1.292931e+002 -1.446395e+000 1.168573e+002 -1.445005e+000 1.169298e+002 -2.973464e+001 -1.176298e+002
995902875 -3.096321e+001 1.412664e+002 -1.460606e+000 5.075740e+001 -1.469135e+000 5.076452e+001 -3.064397e+001 -1.602858e+002
1012777500 -2.861211e+001 9.681139e+001 -1.478533e+000 -1.541908e+001 -1.476428e+000 -1.536785e+001 -5.297092e+001 1.054696e+002
1029652125 -2.783344e+001 6.116939e+001 -1.492127e+000 -8.153057e+001 -1.489693e+000 -8.151305e+001 -3.090445e+001 -9.664468e+001
1046526750 -2.958163e+001 2.493573e+001 -1.495391e+000 -1.476976e+002 -1.500965e+000 -1.476661e+002 -2.970804e+001 -1.640289e+002
1063401375 -3.463699e+001 -1.965815e+001 -1.499138e+000 1.461420e+002 -1.507929e+000 1.462163e+002 -3.488921e+001 1.130175e+002
1080276000 -3.988125e+001 -1.028909e+002 -1.520259e+000 7.994443e+001 -1.515589e+000 8.001769e+001 -3.816950e+001 2.690439e+000
1097150625 -3.299129e+001 1.705519e+002 -1.529842e+000 1.377341e+001 -1.527940e+000 1.384414e+001 -3.471120e+001 -3.539535e+001
1114025250 -2.877492e+001 1.151335e+002 -1.546929e+000 -5.235337e+001 -1.542711e+000 -5.231978e+001 -2.985354e+001 -8.010126e+001
1130899875 -2.934808e+001 7.446474e+001 -1.553949e+000 -1.184886e+002 -1.556449e+000 -1.184170e+002 -3.046344e+001 -1.521615e+002
1147774500 -3.175350e+001 6.785435e+001 -1.566431e+000 1.753356e+002 -1.564593e+000 1.753892e+002 -3.275981e+001 6.778811e+001
1164649125 -2.949978e+001 5.218014e+001 -1.577770e+000 1.092003e+002 -1.580629e+000 1.092589e+002 -2.583381e+001 -2.927552e+001
1181523750 -3.165284e+001 9.362939e+000 -1.600801e+000 4.304560e+001 -1.597750e+000 4.307756e+001 -2.505839e+001 -8.583188e+001
1198398375 -5.646681e+001 -9.019676e+001 -1.599321e+000 -2.307494e+001 -1.597877e+000 -2.306449e+001 -2.687245e+001 -1.161603e+002
1215273000 -3.558031e+001 1.001751e+002 -1.606050e+000 -8.922937e+001 -1.610029e+000 -8.920814e+001 -2.753005e+001 -1.394574e+002
1232147625 -3.613480e+001 9.845106e+001 -1.624063e+000 -1.554314e+002 -1.619818e+000 -1.553544e+002 -3.243358e+001 1.695394e+002
1249022250 -2.881886e+001 9.816258e+001 -1.636984e+000 1.384189e+002 -1.636817e+000 1.383986e+002 -3.518039e+001 -3.829565e+001
1265896875 -2.602425e+001 4.929204e+001 -1.653787e+000 7.226777e+001 -1.657415e+000 7.231190e+001 -2.652515e+001 -1.043659e+002
1282771500 -3.018807e+001 -1.011056e+001 -1.659835e+000 6.185467e+000 -1.657676e+000 6.219038e+000 -2.733404e+001 -1.594594e+002
1299646125 -4.433393e+001 1.169873e+002 -1.667149e+000 -5.997216e+001 -1.661892e+000 -6.001678e+001 -3.577946e+001 -1.798041e+002
1316520750 -3.426311e+001 5.473862e+001 -1.683308e+000 -1.261643e+002 -1.676919e+000 -1.261341e+002 -3.620190e+001 -1.511669e+002
1333395375 -4.940792e+001 1.151437e+002 -1.691872e+000 1.676977e+002 -1.683566e+000 1.676793e+002 -4.363477e+001 -1.071336e+002
1350270000 -2.958388e+001 1.029708e+002 -1.708492e+000 1.015403e+002 -1.703758e+000 1.015543e+002 -2.988255e+001 -1.026608e+002
1367144625 -2.825254e+001 4.994992e+001 -1.712173e+000 3.541428e+001 -1.719476e+000 3.542365e+001 -2.888987e+001 -1.576609e+002
1384019250 -3.599757e+001 4.208417e+001 -1.713202e+000 -3.073310e+001 -1.722478e+000 -3.074590e+001 -4.483463e+001 1.581621e+002
1400893875 -2.923902e+001 6.606679e+001 -1.737651e+000 -9.693970e+001 -1.742787e+000 -9.695608e+001 -2.955543e+001 -9.932255e+001
1417768500 -2.814869e+001 7.974747e+000 -1.746343e+000 -1.630017e+002 -1.751877e+000 -1.630334e+002 -2.678619e+001 -1.487401e+002
1434643125 -3.570420e+001 -9.903693e+001 -1.752867e+000 1.308203e+002 -1.753285e+000 1.308205e+002 -2.930052e+001 -1.738935e+002
1451517750 -2.932718e+001 1.221422e+002 -1.771555e+000 6.466640e+001 -1.765479e+000 6.470484e+001 -2.933992e+001 1.729141e+002
1468392375 -2.779342e+001 6.694776e+001 -1.783194e+000 -1.446122e+000 -1.781436e+000 -1.421833e+000 -3.258309e+001 1.135450e+002
1485267000 -3.086838e+001 5.452776e+001 -1.789443e+000 -6.759750e+001 -1.784159e+000 -6.757258e+001 -3.318025e+001 -6.106049e+001
1502141625 -2.870446e+001 5.379932e+001 -1.801924e+000 -1.337474e+002 -1.798728e+000 -1.337391e+002 -2.597410e+001 -1.403743e+002
1519016250 -2.905000e+001 2.990341e+001 -1.814042e+000 1.600953e+002 -1.811868e+000 1.601021e+002 -2.759005e+001 1.598879e+002
1535890875 -3.130282e+001 2.848774e+001 -1.827364e+000 9.395593e+001 -1.819289e+000 9.397393e+001 -3.943217e+001 1.710228e+002
1552765500 -3.023729e+001 1.375538e+001 -1.826521e+000 2.782530e+001 -1.829869e+000 2.781861e+001 -2.922518e+001 -1.705811e+002
1569640125 -3.454155e+001 -2.436939e+001 -1.844150e+000 -3.833341e+001 -1.833847e+000 -3.827853e+001 -2.932655e+001 1.483130e+002
1586514750 -3.764720e+001 1.319062e+002 -1.847850e+000 -1.045207e+002 -1.851936e+000 -1.044722e+002 -3.017492e+001 1.459426e+002
1603389375 -2.652688e+001 7.907769e+001 -1.867601e+000 -1.706781e+002 -1.868865e+000 -1.706367e+002 -2.625297e+001 1.108023e+002
1620264000 -2.408347e+001 2.904108e+001 -1.885893e+000 1.232704e+002 -1.885968e+000 1.232590e+002 -2.569817e+001 4.305762e+001
1637138625 -2.655623e+001 -2.428840e+001 -1.882177e+000 5.717579e+001 -1.888564e+000 5.723161e+001 -2.818048e+001 -3.358631e+001
1654013250 -4.148103e+001 -9.835951e+001 -1.883174e+000 -8.976500e+000 -1.885031e+000 -9.013912e+000 -3.567189e+001 -1.005128e+002
1670887875 -3.192099e+001 5.435727e+001 -1.902160e+000 -7.515329e+001 -1.895793e+000 -7.513528e+001 -4.050351e+001 -5.446097e+001
1687762500 -3.252066e+001 -3.966616e+000 -1.908532e+000 -1.413283e+002 -1.906408e+000 -1.412791e+002 -3.674346e+001 -9.420938e+001
1704637125 -4.039767e+001 1.064684e+002 -1.920653e+000 1.525683e+002 -1.918845e+000 1.525590e+002 -3.978187e+001 -5.701247e+001
1721511750 -2.790212e+001 5.079789e+001 -1.938002e+000 8.638762e+001 -1.931949e+000 8.640661e+001 -2.869070e+001 -8.104833e+001
1738386375 -2.892590e+001 -1.446163e+001 -1.943502e+000 2.032212e+001 -1.938702e+000 2.027525e+001 -2.758956e+001 -1.338576e+002
1755261000 -4.564478e+001 1.523571e+002 -1.946705e+000 -4.585777e+001 -1.949255e+000 -4.582896e+001 -3.413881e+001 -1.643448e+002
1772135625 -2.809974e+001 5.346603e+001 -1.958521e+000 -1.120529e+002 -1.962294e+000 -1.119979e+002 -3.160283e+001 -1.230877e+002
1789010250 -2.818327e+001 -8.123450e+000 -1.967631e+000 -1.781151e+002 -1.973238e+000 -1.781479e+002 -2.837195e+001 -1.617897e+002
1805884875 -3.950854e+001 -6.661649e+001 -1.978450e+000 1.156739e+002 -1.979298e+000 1.157185e+002 -3.134825e+001 1.709503e+002
1822759500 -3.721302e+001 6.526474e+001 -1.986552e+000 4.955845e+001 -1.983468e+000 4.959533e+001 -3.112700e+001 1.652416e+002
1839634125 -3.368197e+001 5.520288e+001 -1.992950e+000 -1.658440e+001 -1.992206e+000 -1.656417e+001 -3.122493e+001 1.099799e+002
1856508750 -2.871241e+001 4.239797e+001 -2.006668e+000 -8.278755e+001 -2.009113e+000 -8.271981e+001 -3.409873e+001 -4.019053e+000
1873383375 -2.697765e+001 -1.336418e+000 -2.021352e+000 -1.488558e+002 -2.022534e+000 -1.488240e+002 -3.001379e+001 -1.146499e+002
1890258000 -3.081631e+001 -5.406533e+001 -2.027011e+000 1.450312e+002 -2.025468e+000 1.450232e+002 -2.942107e+001 1.790206e+002
1907132625 -4.282801e+001 -1.345352e+002 -2.033057e+000 7.887215e+001 -2.035378e+000 7.891358e+001 -3.228979e+001 1.318918e+002
1924007250 -3.808802e+001 1.119604e+002 -2.048456e+000 1.268941e+001 -2.047926e+000 1.272272e+001 -3.375549e+001 8.424429e+001
1940881875 -2.979989e+001 8.333141e+001 -2.059715e+000 -5.344780e+001 -2.052818e+000 -5.340772e+001 -3.162304e+001 -7.661361e+000
1957756500 -2.596751e+001 3.929843e+001 -2.074891e+000 -1.195602e+002 -2.076867e+000 -1.195659e+002 -2.788649e+001 -9.545544e+001
1974631125 -2.705564e+001 -5.034763e+000 -2.081117e+000 1.743516e+002 -2.083050e+000 1.743567e+002 -2.800737e+001 -1.693271e+002
1991505750 -3.095334e+001 -3.301209e+001 -2.087436e+000 1.082224e+002 -2.084457e+000 1.082367e+002 -3.301061e+001 1.130940e+002
2008380375 -3.538672e+001 -7.646310e+001 -2.089571e+000 4.208945e+001 -2.092242e+000 4.207663e+001 -4.091734e+001 1.260760e+001
2025255000 -3.518707e+001 1.409258e+002 -2.104643e+000 -2.410255e+001 -2.104488e+000 -2.405368e+001 -3.777650e+001 -4.299409e+001
2042129625 -2.736625e+001 6.244192e+001 -2.118644e+000 -9.020460e+001 -2.109096e+000 -9.024345e+001 -2.986246e+001 -8.493404e+001
2059004250 -2.689520e+001 2.301730e+000 -2.125465e+000 -1.563582e+002 -2.131310e+000 -1.563355e+002 -2.742487e+001 -1.430751e+002
2075878875 -3.380821e+001 -5.116459e+001 -2.127179e+000 1.375359e+002 -2.134896e+000 1.375782e+002 -3.022008e+001 1.642658e+002
2092753500 -4.091824e+001 6.961456e+001 -2.137593e+000 7.136189e+001 -2.142235e+000 7.138020e+001 -3.634588e+001 1.571258e+002
2109628125 -3.343998e+001 4.076125e+001 -2.148984e+000 5.203484e+000 -2.148017e+000 5.227896e+000 -3.300945e+001 1.392149e+002
2126502750 -3.035513e+001 2.267596e+001 -2.161380e+000 -6.092540e+001 -2.160507e+000 -6.085456e+001 -3.289124e+001 6.279279e+001
2143377375 -2.977437e+001 -2.649701e+001 -2.173824e+000 -1.270353e+002 -2.171775e+000 -1.270086e+002 -3.381712e+001 -2.020927e+001
2160252000 -3.625440e+001 -1.310245e+002 -2.178127e+000 1.667915e+002 -2.175779e+000 1.668730e+002 -3.440545e+001 -5.784355e+001
2177126625 -2.967464e+001 8.719808e+001 -2.205960e+000 1.006511e+002 -2.190214e+000 1.007087e+002 -3.030156e+001 -7.867372e+001
2194001250 -2.721037e+001 1.469714e+001 -2.208158e+000 3.458152e+001 -2.203208e+000 3.459136e+001 -2.761346e+001 -1.287162e+002
2210875875 -3.326439e+001 -4.643612e+001 -2.205714e+000 -3.152807e+001 -2.207477e+000 -3.153704e+001 -2.987346e+001 1.776320e+002
2227750500 -4.170980e+001 7.198539e+001 -2.210674e+000 -9.768921e+001 -2.215843e+000 -9.765094e+001 -3.729835e+001 1.513498e+002
2244625125 -3.397585e+001 3.613519e+001 -2.219539e+000 -1.638443e+002 -2.219261e+000 -1.638351e+002 -3.572963e+001 1.456440e+002
2261499750 -3.272186e+001 2.262785e+001 -2.230551e+000 1.299753e+002 -2.226977e+000 1.300336e+002 -3.499844e+001 7.634399e+001
2278374375 -3.275900e+001 -2.332490e+001 -2.246987e+000 6.383604e+001 -2.240372e+000 6.383048e+001 -3.621243e+001 1.288006e+001
2295249000 -3.625677e+001 1.733105e+002 -2.250135e+000 -2.342568e+000 -2.243352e+000 -2.267838e+000 -3.431204e+001 1.882580e+001
2312123625 -2.530330e+001 7.396338e+001 -2.279808e+000 -6.852180e+001 -2.277418e+000 -6.844560e+001 -2.701492e+001 -1.995676e+001
2328998250 -2.354718e+001 3.458307e+000 -2.294383e+000 -1.345074e+002 -2.286140e+000 -1.345152e+002 -2.523121e+001 -7.257901e+001
2345872875 -2.957853e+001 -7.533075e+001 -2.290879e+000 1.593754e+002 -2.293149e+000 1.594248e+002 -2.917092e+001 -1.080225e+002
2362747500 -3.356078e+001 8.046912e+001 -2.306320e+000 9.324796e+001 -2.291749e+000 9.325370e+001 -3.105229e+001 -8.680386e+001
2379622125 -2.926870e+001 -1.579417e+001 -2.308291e+000 2.707198e+001 -2.299001e+000 2.706550e+001 -2.875971e+001 -9.681186e+001
2396496750 -3.245258e+001 -1.684569e+002 -2.316305e+000 -3.910498e+001 -2.313191e+000 -3.907408e+001 -2.847731e+001 -9.196429e+001
2413371375 -2.421129e+001 7.521115e+001 -2.337421e+000 -1.052013e+002 -2.332036e+000 -1.052478e+002 -2.381538e+001 -1.061103e+002
2430246000 -2.292356e+001 2.002259e+000 -2.366551e+000 -1.712116e+002 -2.362390e+000 -1.712816e+002 -2.284348e+001 -1.481983e+002
2447120625 -2.852877e+001 -5.833154e+001 -2.348413e+000 1.227292e+002 -2.357432e+000 1.227281e+002 -2.782185e+001 1.687945e+002
2463995250 -3.952948e+001 -5.075325e+001 -2.356622e+000 5.653482e+001 -2.350850e+000 5.655219e+001 -4.077706e+001 -1.573722e+002
2480869875 -4.068248e+001 -1.236376e+002 -2.365361e+000 -9.672470e+000 -2.367458e+000 -9.620027e+000 -3.359735e+001 -1.119448e+002
2497744500 -2.842352e+001 1.020763e+002 -2.381945e+000 -7.581748e+001 -2.376078e+000 -7.578058e+001 -2.765558e+001 -1.087181e+002
2514619125 -2.468797e+001 3.328576e+001 -2.402250e+000 -1.418755e+002 -2.399866e+000 -1.419258e+002 -2.388419e+001 -1.435729e+002
2531493750 -2.855254e+001 -2.516542e+001 -2.394609e+000 1.520854e+002 -2.401230e+000 1.520750e+002 -2.550655e+001 1.689025e+002
2548368375 -3.624922e+001 1.524350e+001 -2.402935e+000 8.592776e+001 -2.392963e+000 8.593526e+001 -3.530562e+001 1.413103e+002
2565243000 -3.137677e+001 -1.978174e+001 -2.408627e+000 1.977891e+001 -2.401337e+000 1.975796e+001 -3.638740e+001 -1.518773e+002
