!Agilent Technologies,N5230A,MY45000845,A.06.01.05
!Agilent N5230A: A.06.01.05
!Date: Friday, July 13, 2012 16:26:16
!Correction: S11(Full 2 Port(1,2)) S21(Full 2 Port(1,2)) S12(Full 2 Port(1,2)) S22(Full 2 Port(1,2)) 
!S2P File: Measurements: S11, S21, S12, S22:
# Hz S  dB   R 50
300000 -5.541494e+001 -2.570945e+001 -2.157114e-002 -6.684704e-001 2.178683e-003 -5.168427e-001 -6.120367e+001 -3.636930e+001
17174625 -4.509490e+001 -3.741085e+001 -4.295767e-002 -3.252134e+001 -5.038965e-002 -3.249321e+001 -4.668562e+001 -5.116733e+001
34049250 -4.060329e+001 -9.448889e+001 -6.385621e-002 -6.423435e+001 -6.573065e-002 -6.426573e+001 -4.368513e+001 -1.186572e+002
50923875 -3.800137e+001 -1.435559e+002 -8.319285e-002 -9.597633e+001 -7.868463e-002 -9.595080e+001 -4.161477e+001 -1.707475e+002
67798500 -3.729334e+001 1.762682e+002 -9.809936e-002 -1.276638e+002 -9.622082e-002 -1.276679e+002 -4.130157e+001 1.322237e+002
84673125 -3.939060e+001 1.345001e+002 -1.047305e-001 -1.594065e+002 -1.058617e-001 -1.593566e+002 -4.157597e+001 6.826134e+001
101547750 -4.307495e+001 8.455421e+001 -1.170461e-001 1.689422e+002 -1.217176e-001 1.689832e+002 -4.194696e+001 1.347897e+001
118422375 -4.706274e+001 -1.898711e+001 -1.213500e-001 1.372646e+002 -1.263199e-001 1.372863e+002 -4.380289e+001 -3.880219e+001
135297000 -4.184517e+001 -8.656068e+001 -1.266632e-001 1.055903e+002 -1.406772e-001 1.055741e+002 -4.980809e+001 -1.125135e+002
152171625 -3.829761e+001 -1.299186e+002 -1.408311e-001 7.390765e+001 -1.486200e-001 7.396121e+001 -4.641426e+001 1.424939e+002
169046250 -3.634154e+001 -1.679452e+002 -1.530439e-001 4.222684e+001 -1.346812e-001 4.226433e+001 -4.268261e+001 6.382382e+001
185920875 -3.699379e+001 1.643577e+002 -1.576806e-001 1.055905e+001 -1.574034e-001 1.053180e+001 -3.836926e+001 1.561148e+001
202795500 -3.850372e+001 1.371818e+002 -1.633163e-001 -2.108868e+001 -1.678438e-001 -2.106227e+001 -3.610460e+001 -2.793764e+001
219670125 -4.229869e+001 1.165765e+002 -1.741603e-001 -5.273944e+001 -1.692699e-001 -5.275082e+001 -3.554063e+001 -7.046664e+001
236544750 -5.221925e+001 1.211548e+002 -1.819649e-001 -8.439272e+001 -1.863767e-001 -8.440357e+001 -3.711129e+001 -1.047604e+002
253419375 -4.702048e+001 -1.649543e+002 -1.862075e-001 -1.160958e+002 -1.902985e-001 -1.160519e+002 -4.031210e+001 -1.485095e+002
270294000 -4.313976e+001 -1.752579e+002 -1.979450e-001 -1.477331e+002 -1.987675e-001 -1.476992e+002 -5.088418e+001 1.502626e+002
287168625 -4.064123e+001 1.751160e+002 -1.986623e-001 -1.794425e+002 -2.026953e-001 -1.793674e+002 -4.318510e+001 -3.553853e+001
304043250 -3.870336e+001 1.675047e+002 -2.128490e-001 1.489008e+002 -2.098908e-001 1.490049e+002 -3.634090e+001 -7.235304e+001
320917875 -3.857391e+001 1.510892e+002 -2.206129e-001 1.173149e+002 -2.090591e-001 1.173410e+002 -3.411699e+001 -1.072297e+002
337792500 -3.812376e+001 1.308658e+002 -2.197879e-001 8.571570e+001 -2.164654e-001 8.569579e+001 -3.408566e+001 -1.449819e+002
354667125 -4.194155e+001 1.052616e+002 -2.169139e-001 5.398940e+001 -2.215733e-001 5.402572e+001 -3.582082e+001 -1.765837e+002
371541750 -5.352032e+001 9.222003e+001 -2.241788e-001 2.233456e+001 -2.300334e-001 2.235641e+001 -4.215921e+001 1.499487e+002
388416375 -4.343631e+001 -1.470177e+002 -2.292676e-001 -9.308374e+000 -2.341920e-001 -9.264188e+000 -4.885398e+001 -1.081053e+002
405291000 -3.722051e+001 -1.737173e+002 -2.394438e-001 -4.092671e+001 -2.417145e-001 -4.095291e+001 -3.746517e+001 -1.089779e+002
422165625 -3.376052e+001 1.570829e+002 -2.481109e-001 -7.258211e+001 -2.467580e-001 -7.258284e+001 -3.328225e+001 -1.393949e+002
439040250 -3.338845e+001 1.295359e+002 -2.473726e-001 -1.042377e+002 -2.495251e-001 -1.042356e+002 -3.159684e+001 -1.707158e+002
455914875 -3.460395e+001 1.020314e+002 -2.594520e-001 -1.359028e+002 -2.628508e-001 -1.359182e+002 -3.221382e+001 1.550309e+002
472789500 -3.865733e+001 6.965158e+001 -2.599492e-001 -1.675488e+002 -2.635581e-001 -1.674454e+002 -3.518746e+001 1.246327e+002
489664125 -5.797480e+001 3.954157e+001 -2.626662e-001 1.608044e+002 -2.726077e-001 1.608668e+002 -4.456560e+001 9.627272e+001
506538750 -3.935176e+001 -1.643089e+002 -2.623489e-001 1.291722e+002 -2.702948e-001 1.291903e+002 -4.241053e+001 -1.367781e+002
523413375 -3.238577e+001 1.642364e+002 -2.756067e-001 9.748370e+001 -2.739045e-001 9.758585e+001 -3.384534e+001 -1.697687e+002
540288000 -3.114998e+001 1.340272e+002 -2.907084e-001 6.588380e+001 -2.785183e-001 6.592767e+001 -3.098738e+001 1.624728e+002
557162625 -3.059628e+001 9.892717e+001 -2.904864e-001 3.426173e+001 -2.842731e-001 3.428770e+001 -3.027551e+001 1.299911e+002
574037250 -3.243024e+001 6.405737e+001 -2.957234e-001 2.620359e+000 -2.883249e-001 2.639342e+000 -3.136230e+001 1.005722e+002
590911875 -3.745971e+001 1.705973e+001 -2.962606e-001 -2.898520e+001 -2.927593e-001 -2.901853e+001 -3.491709e+001 7.977950e+001
607786500 -4.246279e+001 -8.520799e+001 -2.991275e-001 -6.061329e+001 -2.951556e-001 -6.060421e+001 -4.177835e+001 8.841888e+001
624661125 -3.517281e+001 -1.666687e+002 -2.999422e-001 -9.227218e+001 -2.996775e-001 -9.230005e+001 -3.816208e+001 1.381792e+002
641535750 -3.083080e+001 1.513431e+002 -3.012484e-001 -1.239309e+002 -3.116803e-001 -1.239491e+002 -3.184908e+001 1.243737e+002
658410375 -2.936746e+001 1.171633e+002 -3.087784e-001 -1.555839e+002 -3.063769e-001 -1.555794e+002 -2.958150e+001 9.490408e+001
675285000 -2.912761e+001 8.486873e+001 -3.133074e-001 1.727241e+002 -3.232390e-001 1.727804e+002 -2.895080e+001 6.500500e+001
692159625 -3.084667e+001 4.835538e+001 -3.109078e-001 1.411104e+002 -3.193530e-001 1.411665e+002 -2.986601e+001 3.617353e+001
709034250 -3.554635e+001 7.963041e+000 -3.199189e-001 1.095189e+002 -3.175809e-001 1.095185e+002 -3.333978e+001 1.046140e+001
725908875 -4.452489e+001 -9.339266e+001 -3.233331e-001 7.788792e+001 -3.216448e-001 7.787236e+001 -3.999736e+001 1.414895e+001
742783500 -3.582400e+001 1.744951e+002 -3.305869e-001 4.618551e+001 -3.153977e-001 4.622750e+001 -3.750949e+001 6.192612e+001
759658125 -3.108425e+001 1.389732e+002 -3.347587e-001 1.456238e+001 -3.402054e-001 1.457243e+001 -3.172735e+001 4.855735e+001
776532750 -3.005167e+001 1.085442e+002 -3.429438e-001 -1.706298e+001 -3.358005e-001 -1.702321e+001 -2.946336e+001 1.746145e+001
793407375 -3.034827e+001 8.188443e+001 -3.475642e-001 -4.872556e+001 -3.399591e-001 -4.868217e+001 -2.933207e+001 -1.627972e+001
810282000 -3.221630e+001 5.845470e+001 -3.470586e-001 -8.033677e+001 -3.465769e-001 -8.034752e+001 -3.015503e+001 -4.769693e+001
827156625 -3.627825e+001 3.474965e+001 -3.536810e-001 -1.119451e+002 -3.460751e-001 -1.119511e+002 -3.361192e+001 -8.127272e+001
844031250 -4.833928e+001 5.518620e+001 -3.570318e-001 -1.436006e+002 -3.476793e-001 -1.436390e+002 -4.133565e+001 -9.803348e+001
860905875 -4.000597e+001 1.404596e+002 -3.568156e-001 -1.752399e+002 -3.544968e-001 -1.752396e+002 -4.310807e+001 -1.334595e+001
877780500 -3.358158e+001 1.242983e+002 -3.590239e-001 1.531295e+002 -3.671123e-001 1.531391e+002 -3.420452e+001 -2.450146e+001
894655125 -3.083301e+001 9.816614e+001 -3.611165e-001 1.214714e+002 -3.673662e-001 1.215081e+002 -3.023966e+001 -5.755797e+001
911529750 -3.039814e+001 7.496069e+001 -3.667059e-001 8.984026e+001 -3.701763e-001 8.985468e+001 -2.906011e+001 -9.027200e+001
928404375 -3.120424e+001 5.259754e+001 -3.714282e-001 5.816909e+001 -3.733959e-001 5.819304e+001 -2.969041e+001 -1.241568e+002
945279000 -3.374501e+001 3.012070e+001 -3.724361e-001 2.658209e+001 -3.791569e-001 2.657638e+001 -3.169185e+001 -1.564806e+002
962153625 -4.068298e+001 1.285130e+001 -3.775788e-001 -5.086636e+000 -3.818408e-001 -5.042324e+000 -3.683725e+001 -1.757316e+002
979028250 -4.734990e+001 1.341162e+002 -3.778283e-001 -3.672160e+001 -3.835853e-001 -3.667491e+001 -4.318939e+001 -1.278247e+002
995902875 -3.492064e+001 1.266579e+002 -3.844983e-001 -6.835873e+001 -3.928869e-001 -6.831715e+001 -3.424711e+001 -1.142633e+002
1012777500 -3.099658e+001 1.003441e+002 -3.949532e-001 -1.000078e+002 -3.901047e-001 -9.997685e+001 -3.044162e+001 -1.422565e+002
1029652125 -2.989022e+001 6.962926e+001 -3.972493e-001 -1.316087e+002 -3.948276e-001 -1.315575e+002 -2.860934e+001 -1.678039e+002
1046526750 -3.054683e+001 3.964521e+001 -3.955736e-001 -1.632257e+002 -4.016939e-001 -1.632184e+002 -2.893820e+001 1.660562e+002
1063401375 -3.367678e+001 2.436822e+000 -3.959008e-001 1.651578e+002 -4.064532e-001 1.651837e+002 -3.063367e+001 1.452445e+002
1080276000 -4.068742e+001 -6.142514e+001 -3.996548e-001 1.334933e+002 -4.011389e-001 1.335656e+002 -3.446689e+001 1.430251e+002
1097150625 -3.770021e+001 -1.784137e+002 -4.013687e-001 1.018851e+002 -4.032515e-001 1.018925e+002 -3.438356e+001 1.639609e+002
1114025250 -3.159394e+001 1.331224e+002 -4.046395e-001 7.019820e+001 -4.152369e-001 7.022388e+001 -2.984759e+001 1.647225e+002
1130899875 -2.845169e+001 9.869067e+001 -4.169000e-001 3.853184e+001 -4.151986e-001 3.864732e+001 -2.732872e+001 1.449655e+002
1147774500 -2.770984e+001 6.827779e+001 -4.193388e-001 6.959659e+000 -4.198480e-001 7.000879e+000 -2.637160e+001 1.186211e+002
1164649125 -2.857689e+001 3.790859e+001 -4.161042e-001 -2.467076e+001 -4.167078e-001 -2.460244e+001 -2.715318e+001 9.147699e+001
1181523750 -3.274809e+001 4.793972e+000 -4.193279e-001 -5.629162e+001 -4.267356e-001 -5.627447e+001 -3.016646e+001 7.318739e+001
1198398375 -4.361914e+001 -3.997709e+001 -4.229862e-001 -8.796548e+001 -4.204766e-001 -8.791199e+001 -3.474347e+001 7.436233e+001
1215273000 -3.729229e+001 1.446876e+002 -4.246308e-001 -1.196402e+002 -4.228399e-001 -1.195302e+002 -3.401030e+001 1.095939e+002
1232147625 -3.090895e+001 1.089355e+002 -4.361400e-001 -1.512390e+002 -4.337103e-001 -1.511682e+002 -2.949395e+001 1.036880e+002
1249022250 -2.860852e+001 7.686349e+001 -4.363967e-001 1.771617e+002 -4.275686e-001 1.771829e+002 -2.743443e+001 8.277872e+001
1265896875 -2.869741e+001 4.827270e+001 -4.383238e-001 1.455497e+002 -4.387608e-001 1.455554e+002 -2.701246e+001 5.880096e+001
1282771500 -3.084804e+001 2.189775e+001 -4.406345e-001 1.139131e+002 -4.412412e-001 1.139195e+002 -2.865546e+001 3.349326e+001
1299646125 -3.564634e+001 -2.825205e+000 -4.395984e-001 8.228966e+001 -4.425275e-001 8.227087e+001 -3.252366e+001 1.503814e+001
1316520750 -5.604508e+001 1.122590e+002 -4.469829e-001 5.059017e+001 -4.447494e-001 5.067776e+001 -3.836432e+001 3.176544e+001
1333395375 -3.533009e+001 1.179928e+002 -4.515535e-001 1.900521e+001 -4.492370e-001 1.901495e+001 -3.429120e+001 6.273008e+001
1350270000 -3.022119e+001 8.936577e+001 -4.553072e-001 -1.260316e+001 -4.549220e-001 -1.259710e+001 -2.983451e+001 4.720591e+001
1367144625 -2.876855e+001 6.405898e+001 -4.582543e-001 -4.426525e+001 -4.612701e-001 -4.422119e+001 -2.830042e+001 1.786840e+001
1384019250 -2.919191e+001 3.974652e+001 -4.565409e-001 -7.587064e+001 -4.590206e-001 -7.587856e+001 -2.837357e+001 -1.335710e+001
1400893875 -3.203904e+001 2.289198e+001 -4.577166e-001 -1.075284e+002 -4.613543e-001 -1.074796e+002 -3.080363e+001 -4.397110e+001
1417768500 -3.714879e+001 1.438473e+001 -4.583452e-001 -1.391481e+002 -4.591750e-001 -1.391111e+002 -3.603456e+001 -6.811105e+001
1434643125 -4.284089e+001 7.583653e+001 -4.627163e-001 -1.707570e+002 -4.647016e-001 -1.707682e+002 -4.626839e+001 -2.044731e+001
1451517750 -3.457032e+001 9.497080e+001 -4.635239e-001 1.575596e+002 -4.617190e-001 1.576098e+002 -3.511895e+001 5.627302e+000
1468392375 -3.089029e+001 8.503890e+001 -4.725016e-001 1.258931e+002 -4.703670e-001 1.259857e+002 -3.069457e+001 -2.631535e+001
1485267000 -2.862503e+001 6.497632e+001 -4.835308e-001 9.431028e+001 -4.791829e-001 9.433791e+001 -2.866832e+001 -6.401389e+001
1502141625 -2.802142e+001 4.603810e+001 -4.855266e-001 6.269466e+001 -4.828608e-001 6.273793e+001 -2.817628e+001 -1.007966e+002
1519016250 -2.887456e+001 2.631413e+001 -4.861099e-001 3.106203e+001 -4.891056e-001 3.108843e+001 -2.857512e+001 -1.391272e+002
1535890875 -3.099405e+001 1.147871e+001 -4.907243e-001 -5.454484e-001 -4.847209e-001 -5.567673e-001 -3.077407e+001 -1.747482e+002
1552765500 -3.500543e+001 9.219639e+000 -4.789998e-001 -3.217172e+001 -4.832112e-001 -3.215639e+001 -3.604887e+001 1.478212e+002
1569640125 -3.797471e+001 3.766868e+001 -4.902461e-001 -6.377411e+001 -4.855497e-001 -6.381007e+001 -6.922703e+001 -5.894561e+001
1586514750 -3.373495e+001 6.129532e+001 -4.881927e-001 -9.546749e+001 -4.895765e-001 -9.540598e+001 -3.568460e+001 -1.083743e+002
1603389375 -3.038209e+001 5.251451e+001 -4.923896e-001 -1.270891e+002 -4.939175e-001 -1.270869e+002 -3.044780e+001 -1.410106e+002
1620264000 -2.907695e+001 3.470136e+001 -4.979381e-001 -1.587052e+002 -5.000584e-001 -1.587064e+002 -2.826952e+001 -1.747205e+002
1637138625 -2.910246e+001 1.455008e+001 -5.002654e-001 1.696571e+002 -5.049974e-001 1.696624e+002 -2.818479e+001 1.528309e+002
1654013250 -3.109471e+001 -7.119318e+000 -5.013781e-001 1.380306e+002 -5.022324e-001 1.380415e+002 -3.007148e+001 1.237031e+002
1670887875 -3.672279e+001 -2.153106e+001 -5.050850e-001 1.064027e+002 -5.024973e-001 1.064192e+002 -3.412292e+001 1.038936e+002
1687762500 -4.406240e+001 4.337635e+001 -5.071317e-001 7.474464e+001 -5.048192e-001 7.481928e+001 -3.928235e+001 1.345540e+002
1704637125 -3.530700e+001 6.639951e+001 -5.065765e-001 4.316470e+001 -5.110763e-001 4.314572e+001 -3.347661e+001 1.603514e+002
1721511750 -3.120875e+001 4.742467e+001 -5.135710e-001 1.149848e+001 -5.100002e-001 1.147493e+001 -2.953356e+001 1.434442e+002
1738386375 -2.997191e+001 2.512115e+001 -5.139898e-001 -2.010394e+001 -5.196179e-001 -2.012753e+001 -2.817115e+001 1.180091e+002
1755261000 -3.094551e+001 3.788910e+000 -5.159184e-001 -5.174846e+001 -5.210423e-001 -5.172270e+001 -2.882342e+001 9.178426e+001
1772135625 -3.464369e+001 -1.617200e+001 -5.211767e-001 -8.340255e+001 -5.253757e-001 -8.335236e+001 -3.177807e+001 7.240386e+001
1789010250 -4.213592e+001 -7.368899e+000 -5.241762e-001 -1.149939e+002 -5.278600e-001 -1.149768e+002 -3.901368e+001 6.873804e+001
1805884875 -3.756257e+001 6.241532e+001 -5.235195e-001 -1.466818e+002 -5.265608e-001 -1.466117e+002 -3.571840e+001 1.242166e+002
1822759500 -3.181809e+001 5.344109e+001 -5.280605e-001 -1.782679e+002 -5.293201e-001 -1.782553e+002 -3.042230e+001 1.135749e+002
1839634125 -2.960603e+001 3.014078e+001 -5.300016e-001 1.501189e+002 -5.310654e-001 1.501183e+002 -2.819742e+001 8.945747e+001
1856508750 -2.971279e+001 4.396156e+000 -5.325817e-001 1.184373e+002 -5.295091e-001 1.184938e+002 -2.809083e+001 6.370335e+001
1873383375 -3.208060e+001 -1.965421e+001 -5.329350e-001 8.689219e+001 -5.374981e-001 8.691431e+001 -3.022577e+001 4.165286e+001
1890258000 -3.935167e+001 -3.558728e+001 -5.393667e-001 5.522343e+001 -5.362283e-001 5.524727e+001 -3.412617e+001 3.221910e+001
1907132625 -4.548739e+001 8.093891e+001 -5.366490e-001 2.360573e+001 -5.389312e-001 2.362557e+001 -3.645900e+001 6.008794e+001
1924007250 -3.449057e+001 7.061345e+001 -5.434026e-001 -8.100551e+000 -5.492074e-001 -8.030467e+000 -3.234837e+001 6.881071e+001
1940881875 -3.093218e+001 4.794415e+001 -5.464308e-001 -3.966320e+001 -5.468156e-001 -3.963506e+001 -2.982096e+001 4.877221e+001
1957756500 -2.996857e+001 2.546984e+001 -5.498549e-001 -7.131596e+001 -5.526153e-001 -7.128864e+001 -2.921443e+001 1.935236e+001
1974631125 -3.122571e+001 2.060140e+000 -5.562269e-001 -1.029149e+002 -5.516989e-001 -1.028762e+002 -3.014764e+001 -7.742114e+000
1991505750 -3.319782e+001 -1.270834e+001 -5.552129e-001 -1.345285e+002 -5.474136e-001 -1.345036e+002 -3.370481e+001 -4.166738e+001
2008380375 -3.906363e+001 -1.338803e+001 -5.519476e-001 -1.661565e+002 -5.507898e-001 -1.661693e+002 -4.174321e+001 -6.995254e+001
2025255000 -3.971655e+001 2.476130e+001 -5.518307e-001 1.622062e+002 -5.567661e-001 1.622165e+002 -4.599120e+001 5.191627e+001
2042129625 -3.523672e+001 4.125909e+001 -5.597159e-001 1.305625e+002 -5.525671e-001 1.305379e+002 -3.570336e+001 2.432239e+001
2059004250 -3.305397e+001 3.161608e+001 -5.634743e-001 9.891145e+001 -5.630864e-001 9.891329e+001 -3.336838e+001 -1.145269e+001
2075878875 -3.312461e+001 1.946341e+001 -5.659955e-001 6.729803e+001 -5.669581e-001 6.733566e+001 -3.320992e+001 -5.240720e+001
2092753500 -3.345441e+001 1.304924e+001 -5.730477e-001 3.566040e+001 -5.648961e-001 3.567797e+001 -3.467899e+001 -9.836549e+001
2109628125 -3.438479e+001 5.530058e+000 -5.676986e-001 4.007988e+000 -5.696527e-001 4.058860e+000 -3.725961e+001 -1.489943e+002
2126502750 -3.590457e+001 5.093812e+000 -5.702254e-001 -2.758144e+001 -5.727949e-001 -2.755105e+001 -4.008876e+001 1.437689e+002
2143377375 -3.721639e+001 1.154770e+001 -5.717775e-001 -5.926442e+001 -5.725930e-001 -5.914122e+001 -4.308739e+001 5.555123e+001
2160252000 -3.718971e+001 2.434169e+001 -5.823357e-001 -9.080789e+001 -5.693239e-001 -9.081261e+001 -4.094727e+001 -2.980594e+001
2177126625 -3.605469e+001 2.604042e+001 -5.826031e-001 -1.224495e+002 -5.779734e-001 -1.224417e+002 -3.775113e+001 -9.428429e+001
2194001250 -3.465783e+001 2.371828e+001 -5.826457e-001 -1.540920e+002 -5.828650e-001 -1.540780e+002 -3.485242e+001 -1.488118e+002
2210875875 -3.395028e+001 1.455921e+001 -5.837595e-001 1.742584e+002 -5.834986e-001 1.742748e+002 -3.423140e+001 1.690110e+002
2227750500 -3.465378e+001 5.726897e+000 -5.891680e-001 1.426546e+002 -5.853454e-001 1.426777e+002 -3.493930e+001 1.289461e+002
2244625125 -3.690968e+001 5.674674e+000 -5.857684e-001 1.110608e+002 -5.797718e-001 1.110605e+002 -3.930181e+001 9.307903e+001
2261499750 -3.937410e+001 2.115981e+001 -5.878466e-001 7.935648e+001 -5.863533e-001 7.939464e+001 -6.293471e+001 -8.421114e+001
2278374375 -3.714055e+001 4.324377e+001 -5.988097e-001 4.773931e+001 -5.909043e-001 4.773699e+001 -3.846209e+001 -1.540487e+002
2295249000 -3.321576e+001 4.229122e+001 -5.967267e-001 1.612712e+001 -5.936171e-001 1.619136e+001 -3.291040e+001 1.662562e+002
2312123625 -3.160611e+001 2.723108e+001 -5.977595e-001 -1.549309e+001 -6.012272e-001 -1.548691e+001 -3.070188e+001 1.309097e+002
2328998250 -3.146571e+001 7.828918e+000 -5.978016e-001 -4.714035e+001 -6.006482e-001 -4.706579e+001 -3.085747e+001 9.780871e+001
2345872875 -3.351740e+001 -8.873704e+000 -6.013999e-001 -7.875245e+001 -6.012244e-001 -7.869344e+001 -3.324599e+001 7.012006e+001
2362747500 -3.785001e+001 -5.170505e+000 -6.077652e-001 -1.103536e+002 -5.980652e-001 -1.103293e+002 -4.095192e+001 4.939833e+001
2379622125 -3.954251e+001 3.264849e+001 -6.110990e-001 -1.420088e+002 -6.006581e-001 -1.420204e+002 -4.115166e+001 1.521391e+002
2396496750 -3.450077e+001 4.052105e+001 -6.062958e-001 -1.736244e+002 -6.114380e-001 -1.735995e+002 -3.310920e+001 1.378411e+002
2413371375 -3.164630e+001 2.716406e+001 -6.092874e-001 1.547454e+002 -6.112518e-001 1.547545e+002 -3.003015e+001 1.079726e+002
2430246000 -3.086078e+001 9.334884e+000 -6.115047e-001 1.231618e+002 -6.161230e-001 1.231085e+002 -2.912362e+001 7.838724e+001
2447120625 -3.219813e+001 -1.179613e+001 -6.118375e-001 9.150752e+001 -6.199045e-001 9.152523e+001 -3.106421e+001 4.521359e+001
2463995250 -3.584915e+001 -2.560856e+001 -6.175108e-001 5.985130e+001 -6.125962e-001 5.990067e+001 -3.597076e+001 2.721101e+001
2480869875 -4.226466e+001 4.149885e+000 -6.181589e-001 2.820922e+001 -6.115378e-001 2.825755e+001 -4.548527e+001 7.956326e+001
2497744500 -3.684341e+001 5.052301e+001 -6.265596e-001 -3.398978e+000 -6.237928e-001 -3.322822e+000 -3.543893e+001 1.022515e+002
2514619125 -3.284123e+001 3.625768e+001 -6.341754e-001 -3.502726e+001 -6.331972e-001 -3.501481e+001 -3.123311e+001 7.645153e+001
2531493750 -3.111738e+001 2.148824e+001 -6.308921e-001 -6.664378e+001 -6.233521e-001 -6.659696e+001 -3.012921e+001 4.549189e+001
2548368375 -3.159970e+001 5.418879e+000 -6.307527e-001 -9.825748e+001 -6.252970e-001 -9.824002e+001 -3.161850e+001 1.135949e+001
2565243000 -3.375954e+001 -3.373199e+000 -6.282610e-001 -1.298713e+002 -6.252349e-001 -1.298946e+002 -3.654070e+001 -2.949862e+001
