!Agilent Technologies,N5230A,MY45000845,A.06.01.05
!Agilent N5230A: A.06.01.05
!Date: Friday, July 13, 2012 16:28:12
!Correction: S11(Full 2 Port(1,2)) S21(Full 2 Port(1,2)) S12(Full 2 Port(1,2)) S22(Full 2 Port(1,2)) 
!S2P File: Measurements: S11, S21, S12, S22:
# Hz S  dB   R 50
300000 -6.470284e+001 -2.810827e+001 -2.699796e-002 -7.160498e-001 -3.265504e-003 -5.661420e-001 -5.561016e+001 -3.390700e+001
17174625 -4.447949e+001 -5.288104e+000 -4.626361e-002 -3.253311e+001 -5.136143e-002 -3.250392e+001 -4.610140e+001 -2.787126e+000
34049250 -4.262187e+001 -4.327116e+001 -6.620413e-002 -6.426144e+001 -6.447493e-002 -6.427329e+001 -4.635471e+001 -4.686643e+001
50923875 -4.295339e+001 -1.021953e+002 -8.609474e-002 -9.602081e+001 -8.225533e-002 -9.603442e+001 -4.816167e+001 -8.528812e+001
67798500 -4.417624e+001 -1.500313e+002 -9.746945e-002 -1.277435e+002 -9.528974e-002 -1.277521e+002 -7.034435e+001 -2.411934e+001
84673125 -4.787249e+001 1.485629e+002 -1.087495e-001 -1.594815e+002 -1.074849e-001 -1.594288e+002 -4.813091e+001 1.234017e+001
101547750 -5.062786e+001 7.586863e+001 -1.169617e-001 1.687933e+002 -1.227242e-001 1.688417e+002 -4.331488e+001 -1.910276e+001
118422375 -4.927978e+001 -2.596768e+001 -1.292728e-001 1.371239e+002 -1.321981e-001 1.371228e+002 -4.223567e+001 -4.942929e+001
135297000 -4.599150e+001 -7.988925e+001 -1.338196e-001 1.054355e+002 -1.403114e-001 1.054310e+002 -4.339339e+001 -8.252806e+001
152171625 -4.377830e+001 -1.210128e+002 -1.396784e-001 7.374708e+001 -1.534643e-001 7.377357e+001 -4.774935e+001 -1.103315e+002
169046250 -4.225576e+001 -1.639218e+002 -1.576180e-001 4.206863e+001 -1.414954e-001 4.209233e+001 -5.357373e+001 -5.735135e+001
185920875 -4.298029e+001 1.597102e+002 -1.609050e-001 1.036761e+001 -1.647549e-001 1.029419e+001 -4.402148e+001 -2.225681e+001
202795500 -4.667336e+001 1.314022e+002 -1.722055e-001 -2.130217e+001 -1.700389e-001 -2.128460e+001 -3.913798e+001 -5.276722e+001
219670125 -4.888704e+001 8.897627e+001 -1.810753e-001 -5.296957e+001 -1.803546e-001 -5.298895e+001 -3.743274e+001 -8.175776e+001
236544750 -6.586344e+001 -2.478940e+001 -1.862362e-001 -8.466796e+001 -1.923505e-001 -8.469923e+001 -3.754425e+001 -1.065347e+002
253419375 -5.231449e+001 -1.346708e+002 -1.871839e-001 -1.163728e+002 -1.937233e-001 -1.162952e+002 -3.935132e+001 -1.360185e+002
270294000 -5.137577e+001 -1.440488e+002 -2.041302e-001 -1.480112e+002 -2.039936e-001 -1.479801e+002 -4.480162e+001 -1.446780e+002
287168625 -4.671721e+001 -1.465045e+002 -2.063009e-001 -1.797271e+002 -2.078994e-001 -1.796632e+002 -4.284326e+001 -1.002940e+002
304043250 -4.213244e+001 -1.693076e+002 -2.218974e-001 1.485816e+002 -2.126063e-001 1.486841e+002 -3.751529e+001 -9.831932e+001
320917875 -4.082319e+001 1.643112e+002 -2.276240e-001 1.170024e+002 -2.177768e-001 1.170133e+002 -3.461531e+001 -1.220222e+002
337792500 -3.881336e+001 1.317345e+002 -2.241860e-001 8.536427e+001 -2.229968e-001 8.534402e+001 -3.362235e+001 -1.508957e+002
354667125 -4.064524e+001 9.432284e+001 -2.265351e-001 5.363738e+001 -2.320796e-001 5.365918e+001 -3.436837e+001 -1.743099e+002
371541750 -4.441374e+001 5.286776e+001 -2.321917e-001 2.197481e+001 -2.384502e-001 2.200127e+001 -3.751742e+001 1.618425e+002
388416375 -5.215484e+001 -6.356588e+001 -2.375479e-001 -9.694063e+000 -2.412523e-001 -9.656364e+000 -4.197823e+001 1.654182e+002
405291000 -4.363837e+001 -1.529398e+002 -2.448298e-001 -4.134084e+001 -2.544129e-001 -4.135243e+001 -4.168683e+001 -1.508806e+002
422165625 -3.820628e+001 1.628340e+002 -2.516283e-001 -7.301096e+001 -2.576595e-001 -7.297179e+001 -3.659942e+001 -1.575975e+002
439040250 -3.649878e+001 1.274152e+002 -2.561697e-001 -1.046566e+002 -2.620651e-001 -1.046902e+002 -3.407526e+001 -1.797527e+002
455914875 -3.682452e+001 9.329124e+001 -2.657398e-001 -1.363379e+002 -2.687208e-001 -1.363187e+002 -3.378850e+001 1.521687e+002
472789500 -3.836156e+001 4.631659e+001 -2.617320e-001 -1.679801e+002 -2.743061e-001 -1.679451e+002 -3.487970e+001 1.304593e+002
489664125 -4.177983e+001 -1.568730e+001 -2.701206e-001 1.603333e+002 -2.770490e-001 1.604092e+002 -3.818147e+001 1.209202e+002
506538750 -4.213657e+001 -1.062858e+002 -2.744688e-001 1.286797e+002 -2.763406e-001 1.287145e+002 -4.098351e+001 1.382072e+002
523413375 -3.654324e+001 -1.716726e+002 -2.796082e-001 9.695076e+001 -2.848260e-001 9.706939e+001 -3.673862e+001 1.498652e+002
540288000 -3.540055e+001 1.449845e+002 -2.892994e-001 6.535171e+001 -2.880320e-001 6.541348e+001 -3.401850e+001 1.364018e+002
557162625 -3.446704e+001 1.014281e+002 -2.991816e-001 3.369751e+001 -2.876647e-001 3.372477e+001 -3.302677e+001 1.140124e+002
574037250 -3.585939e+001 5.750653e+001 -3.033153e-001 2.027540e+000 -2.926598e-001 2.106481e+000 -3.404243e+001 8.947662e+001
590911875 -4.010259e+001 -1.717287e+000 -3.048883e-001 -2.955512e+001 -3.013706e-001 -2.958761e+001 -3.681943e+001 7.229532e+001
607786500 -4.141838e+001 -8.401635e+001 -3.078855e-001 -6.123125e+001 -3.074722e-001 -6.122770e+001 -4.146413e+001 8.047218e+001
624661125 -3.649743e+001 -1.555755e+002 -3.081112e-001 -9.285661e+001 -3.089019e-001 -9.289896e+001 -3.956754e+001 1.127499e+002
641535750 -3.271008e+001 1.589970e+002 -3.090413e-001 -1.245651e+002 -3.196272e-001 -1.245531e+002 -3.395465e+001 1.086460e+002
658410375 -3.174090e+001 1.222508e+002 -3.150368e-001 -1.562240e+002 -3.187913e-001 -1.562005e+002 -3.160681e+001 7.967512e+001
675285000 -3.182576e+001 8.701933e+001 -3.165128e-001 1.720755e+002 -3.258608e-001 1.721066e+002 -3.094679e+001 5.249705e+001
692159625 -3.375695e+001 4.631683e+001 -3.215784e-001 1.404536e+002 -3.249714e-001 1.404562e+002 -3.171423e+001 2.690787e+001
709034250 -3.844530e+001 2.422328e+000 -3.294325e-001 1.087703e+002 -3.188072e-001 1.088183e+002 -3.516961e+001 2.967177e+000
725908875 -4.407821e+001 -9.623033e+001 -3.370109e-001 7.714734e+001 -3.284386e-001 7.718443e+001 -4.018152e+001 6.789835e+000
742783500 -3.787435e+001 1.772930e+002 -3.412011e-001 4.546797e+001 -3.309601e-001 4.549768e+001 -4.008863e+001 3.933079e+001
759658125 -3.398263e+001 1.430895e+002 -3.459591e-001 1.379277e+001 -3.480296e-001 1.384031e+001 -3.448046e+001 3.449806e+001
776532750 -3.321737e+001 1.114626e+002 -3.481055e-001 -1.781009e+001 -3.436369e-001 -1.784089e+001 -3.194342e+001 4.066053e+000
793407375 -3.352198e+001 8.683542e+001 -3.589799e-001 -4.950178e+001 -3.482647e-001 -4.945363e+001 -3.132209e+001 -3.121744e+001
810282000 -3.555793e+001 7.067417e+001 -3.549801e-001 -8.108849e+001 -3.492101e-001 -8.108865e+001 -3.169168e+001 -6.468490e+001
827156625 -3.908268e+001 6.223325e+001 -3.624193e-001 -1.127909e+002 -3.660994e-001 -1.127361e+002 -3.459653e+001 -1.025700e+002
844031250 -4.267073e+001 9.635127e+001 -3.639120e-001 -1.444105e+002 -3.617703e-001 -1.444481e+002 -4.140311e+001 -1.378883e+002
860905875 -3.885764e+001 1.173492e+002 -3.629596e-001 -1.760762e+002 -3.636685e-001 -1.760858e+002 -5.160506e+001 2.190324e+001
877780500 -3.479708e+001 1.095497e+002 -3.670116e-001 1.522558e+002 -3.761084e-001 1.522743e+002 -3.695327e+001 -2.286305e+001
894655125 -3.302365e+001 9.121737e+001 -3.702414e-001 1.206196e+002 -3.775406e-001 1.206327e+002 -3.233961e+001 -6.253797e+001
911529750 -3.290857e+001 7.491415e+001 -3.753363e-001 8.896894e+001 -3.777749e-001 8.896452e+001 -3.104402e+001 -9.880100e+001
928404375 -3.393286e+001 5.693229e+001 -3.793702e-001 5.728376e+001 -3.809661e-001 5.733191e+001 -3.124095e+001 -1.357654e+002
945279000 -3.555530e+001 4.618604e+001 -3.843045e-001 2.567069e+001 -3.878055e-001 2.567941e+001 -3.271506e+001 -1.717337e+002
962153625 -3.944590e+001 4.402831e+001 -3.848466e-001 -6.034781e+000 -3.852681e-001 -5.971271e+000 -3.680396e+001 1.585342e+002
979028250 -4.188300e+001 7.844028e+001 -3.906025e-001 -3.765922e+001 -3.926710e-001 -3.760736e+001 -5.152141e+001 1.526682e+002
995902875 -3.649813e+001 1.002436e+002 -3.940529e-001 -6.932167e+001 -4.037234e-001 -6.926351e+001 -3.813592e+001 -1.082995e+002
1012777500 -3.276963e+001 8.557922e+001 -4.013952e-001 -1.009854e+002 -4.029790e-001 -1.009186e+002 -3.253013e+001 -1.404413e+002
1029652125 -3.129690e+001 5.978144e+001 -4.031787e-001 -1.325999e+002 -4.015293e-001 -1.325695e+002 -2.985970e+001 -1.673277e+002
1046526750 -3.141120e+001 3.501143e+001 -4.016246e-001 -1.642035e+002 -4.099077e-001 -1.642248e+002 -2.969118e+001 1.640771e+002
1063401375 -3.421236e+001 5.520208e+000 -4.074463e-001 1.641273e+002 -4.108078e-001 1.641426e+002 -3.074291e+001 1.369997e+002
1080276000 -4.051812e+001 -2.726624e+001 -4.092387e-001 1.324716e+002 -4.093501e-001 1.325246e+002 -3.424037e+001 1.202983e+002
1097150625 -5.107979e+001 1.571698e+002 -4.071935e-001 1.008221e+002 -4.126135e-001 1.008335e+002 -3.795769e+001 1.314133e+002
1114025250 -3.667965e+001 1.089053e+002 -4.154171e-001 6.913350e+001 -4.220179e-001 6.915223e+001 -3.477475e+001 1.572557e+002
1130899875 -3.254729e+001 7.931330e+001 -4.260075e-001 3.746111e+001 -4.216094e-001 3.752300e+001 -3.102844e+001 1.465753e+002
1147774500 -3.125185e+001 5.129197e+001 -4.279372e-001 5.871690e+000 -4.251665e-001 5.870234e+000 -2.955579e+001 1.229461e+002
1164649125 -3.199946e+001 2.002787e+001 -4.252551e-001 -2.580799e+001 -4.264798e-001 -2.576982e+001 -2.959545e+001 9.906026e+001
1181523750 -3.542989e+001 -1.397099e+001 -4.276507e-001 -5.745470e+001 -4.266893e-001 -5.742495e+001 -3.169393e+001 8.270804e+001
1198398375 -4.458861e+001 -6.476122e+001 -4.297473e-001 -8.909100e+001 -4.350296e-001 -8.905077e+001 -3.489346e+001 7.747740e+001
1215273000 -4.011307e+001 1.371320e+002 -4.351084e-001 -1.207488e+002 -4.379883e-001 -1.206958e+002 -3.574131e+001 9.991872e+001
1232147625 -3.352478e+001 9.724514e+001 -4.415553e-001 -1.524406e+002 -4.383786e-001 -1.523603e+002 -3.218927e+001 1.007211e+002
1249022250 -3.125327e+001 6.382157e+001 -4.434054e-001 1.759295e+002 -4.372600e-001 1.759660e+002 -3.007688e+001 8.451572e+001
1265896875 -3.142910e+001 3.403123e+001 -4.460862e-001 1.443306e+002 -4.450150e-001 1.443592e+002 -2.929366e+001 6.227750e+001
1282771500 -3.366946e+001 8.893759e+000 -4.471297e-001 1.126320e+002 -4.485089e-001 1.127080e+002 -3.041805e+001 3.760045e+001
1299646125 -3.854704e+001 -1.010599e+001 -4.550991e-001 8.103387e+001 -4.530749e-001 8.102077e+001 -3.355228e+001 1.552645e+001
1316520750 -5.406047e+001 5.645412e+001 -4.549589e-001 4.937705e+001 -4.565558e-001 4.940352e+001 -3.886738e+001 9.103932e+000
1333395375 -3.989310e+001 8.920523e+001 -4.617094e-001 1.774756e+001 -4.591344e-001 1.773039e+001 -4.009675e+001 4.845824e+001
1350270000 -3.482477e+001 6.266321e+001 -4.632401e-001 -1.389714e+001 -4.624878e-001 -1.388477e+001 -3.535990e+001 5.027695e+001
1367144625 -3.416628e+001 3.839607e+001 -4.638595e-001 -4.561243e+001 -4.653387e-001 -4.558490e+001 -3.372939e+001 2.616657e+001
1384019250 -3.584943e+001 1.490646e+001 -4.640208e-001 -7.716565e+001 -4.652373e-001 -7.723147e+001 -3.394409e+001 -1.418433e+000
1400893875 -4.231753e+001 1.238141e+001 -4.682486e-001 -1.088967e+002 -4.656646e-001 -1.088843e+002 -3.729479e+001 -3.042183e+001
1417768500 -4.470127e+001 6.652446e+001 -4.732190e-001 -1.405313e+002 -4.708811e-001 -1.405073e+002 -4.578624e+001 -5.520681e+001
1434643125 -3.741514e+001 7.953031e+001 -4.757367e-001 -1.721874e+002 -4.759244e-001 -1.721614e+002 -4.754181e+001 6.432202e+001
1451517750 -3.385101e+001 6.198412e+001 -4.754049e-001 1.561848e+002 -4.727162e-001 1.561920e+002 -3.810783e+001 4.243333e+001
1468392375 -3.311245e+001 4.347192e+001 -4.819921e-001 1.245281e+002 -4.807631e-001 1.245901e+002 -3.482071e+001 6.084205e+000
1485267000 -3.295124e+001 2.357110e+001 -4.886431e-001 9.289677e+001 -4.821822e-001 9.290755e+001 -3.415364e+001 -3.267203e+001
1502141625 -3.444216e+001 7.865539e+000 -4.930189e-001 6.124387e+001 -4.864800e-001 6.129641e+001 -3.412597e+001 -7.075587e+001
1519016250 -3.753613e+001 -6.351883e+000 -4.913778e-001 2.959580e+001 -4.897564e-001 2.960791e+001 -3.524338e+001 -1.090894e+002
1535890875 -4.212033e+001 -1.036191e+001 -4.960919e-001 -2.002014e+000 -4.893838e-001 -2.034830e+000 -3.726986e+001 -1.414848e+002
1552765500 -4.605167e+001 3.862490e+001 -4.880006e-001 -3.367629e+001 -4.935332e-001 -3.367818e+001 -4.184256e+001 -1.592409e+002
1569640125 -4.188377e+001 6.055457e+001 -4.977826e-001 -6.531230e+001 -4.981209e-001 -6.529816e+001 -4.495798e+001 -1.381187e+002
1586514750 -3.823084e+001 5.956412e+001 -4.996494e-001 -9.696018e+001 -5.017608e-001 -9.692590e+001 -3.922857e+001 -1.361470e+002
1603389375 -3.653161e+001 4.909998e+001 -5.001693e-001 -1.286074e+002 -5.016038e-001 -1.286078e+002 -3.562626e+001 -1.543283e+002
1620264000 -3.597667e+001 3.682632e+001 -5.040352e-001 -1.602870e+002 -5.029010e-001 -1.602793e+002 -3.351991e+001 1.773975e+002
1637138625 -3.643546e+001 2.321297e+001 -5.086140e-001 1.680699e+002 -5.073474e-001 1.680914e+002 -3.313756e+001 1.490119e+002
1654013250 -3.793821e+001 1.036408e+001 -5.078332e-001 1.364312e+002 -5.083717e-001 1.364533e+002 -3.524837e+001 1.263962e+002
1670887875 -4.168587e+001 1.855784e+001 -5.170079e-001 1.047976e+002 -5.101246e-001 1.048058e+002 -3.889007e+001 1.160480e+002
1687762500 -4.057514e+001 5.063138e+001 -5.233557e-001 7.311806e+001 -5.217462e-001 7.315665e+001 -4.093650e+001 1.492374e+002
1704637125 -3.712631e+001 4.919391e+001 -5.183104e-001 4.150785e+001 -5.190181e-001 4.152522e+001 -3.598022e+001 1.619652e+002
1721511750 -3.535129e+001 3.214735e+001 -5.246013e-001 9.861781e+000 -5.190943e-001 9.854431e+000 -3.281868e+001 1.458135e+002
1738386375 -3.534210e+001 1.396514e+001 -5.220342e-001 -2.180570e+001 -5.264282e-001 -2.179167e+001 -3.161829e+001 1.232446e+002
1755261000 -3.783315e+001 -4.065136e+000 -5.284064e-001 -5.345931e+001 -5.308755e-001 -5.340034e+001 -3.214174e+001 1.028379e+002
1772135625 -4.367070e+001 -1.308039e+001 -5.298552e-001 -8.507992e+001 -5.302443e-001 -8.505040e+001 -3.459142e+001 9.037535e+001
1789010250 -4.875449e+001 3.703016e+001 -5.369002e-001 -1.167209e+002 -5.351805e-001 -1.167271e+002 -3.840666e+001 9.402742e+001
1805884875 -3.956161e+001 6.481129e+001 -5.331569e-001 -1.484144e+002 -5.352295e-001 -1.483805e+002 -3.612087e+001 1.113638e+002
1822759500 -3.565774e+001 4.742994e+001 -5.352963e-001 -1.799998e+002 -5.390866e-001 -1.799983e+002 -3.317453e+001 1.060206e+002
1839634125 -3.492999e+001 2.633711e+001 -5.365635e-001 1.483346e+002 -5.423799e-001 1.483516e+002 -3.209531e+001 8.734720e+001
1856508750 -3.635050e+001 2.149439e+000 -5.399894e-001 1.166661e+002 -5.412094e-001 1.167095e+002 -3.208667e+001 6.805302e+001
1873383375 -4.001257e+001 -1.028349e+001 -5.414834e-001 8.505997e+001 -5.452714e-001 8.508450e+001 -3.487177e+001 5.081112e+001
1890258000 -4.437191e+001 2.467330e+001 -5.417042e-001 5.339396e+001 -5.464666e-001 5.340248e+001 -3.904798e+001 4.899822e+001
1907132625 -4.050476e+001 4.766097e+001 -5.479628e-001 2.177587e+001 -5.517019e-001 2.179033e+001 -3.983030e+001 7.841386e+001
1924007250 -3.714487e+001 2.979639e+001 -5.543520e-001 -9.910917e+000 -5.545843e-001 -9.866411e+000 -3.673303e+001 8.768140e+001
1940881875 -3.678907e+001 5.279975e+000 -5.508486e-001 -4.151362e+001 -5.551087e-001 -4.147966e+001 -3.506816e+001 7.265981e+001
1957756500 -3.920553e+001 -2.289766e+001 -5.536938e-001 -7.319821e+001 -5.591549e-001 -7.317696e+001 -3.578770e+001 5.414704e+001
1974631125 -4.630904e+001 -8.514365e+001 -5.639502e-001 -1.048099e+002 -5.601140e-001 -1.047515e+002 -3.633720e+001 4.675747e+001
1991505750 -4.691778e+001 1.352429e+002 -5.659904e-001 -1.364639e+002 -5.565274e-001 -1.364013e+002 -3.916055e+001 4.753166e+001
2008380375 -3.841456e+001 9.710973e+001 -5.650815e-001 -1.681298e+002 -5.651261e-001 -1.680642e+002 -3.848110e+001 5.718168e+001
2025255000 -3.579036e+001 6.197284e+001 -5.677858e-001 1.602402e+002 -5.650829e-001 1.603112e+002 -3.669414e+001 5.083373e+001
2042129625 -3.559663e+001 3.288360e+001 -5.694464e-001 1.286273e+002 -5.675439e-001 1.286135e+002 -3.607823e+001 3.106318e+001
2059004250 -3.844719e+001 2.809960e+000 -5.698348e-001 9.696560e+001 -5.722950e-001 9.696924e+001 -3.801599e+001 1.326533e+001
2075878875 -5.275130e+001 -3.630530e+001 -5.742083e-001 6.528928e+001 -5.749719e-001 6.534593e+001 -4.324826e+001 8.735202e+000
2092753500 -4.182478e+001 1.236949e+002 -5.809205e-001 3.361970e+001 -5.774765e-001 3.368221e+001 -4.622902e+001 5.766611e+001
2109628125 -3.560028e+001 9.817382e+001 -5.793823e-001 1.976574e+000 -5.765555e-001 2.048656e+000 -3.910602e+001 6.084370e+001
2126502750 -3.334441e+001 7.155247e+001 -5.828841e-001 -2.962569e+001 -5.816026e-001 -2.956821e+001 -3.638423e+001 3.646310e+001
2143377375 -3.290523e+001 4.801589e+001 -5.879977e-001 -6.127802e+001 -5.862219e-001 -6.123846e+001 -3.556263e+001 2.520431e+000
2160252000 -3.413580e+001 2.772206e+001 -5.935577e-001 -9.289182e+001 -5.782721e-001 -9.286790e+001 -3.699043e+001 -3.666807e+001
2177126625 -3.852391e+001 1.508417e+001 -5.915260e-001 -1.245366e+002 -5.862873e-001 -1.245127e+002 -3.969404e+001 -8.349609e+001
2194001250 -4.281039e+001 3.868996e+001 -5.941215e-001 -1.561797e+002 -5.891494e-001 -1.561820e+002 -4.255605e+001 -1.510050e+002
2210875875 -3.950222e+001 6.226125e+001 -5.887362e-001 1.721283e+002 -5.928392e-001 1.721611e+002 -4.234636e+001 1.344901e+002
2227750500 -3.631960e+001 5.532672e+001 -5.976793e-001 1.405203e+002 -5.932711e-001 1.405628e+002 -4.195179e+001 7.866026e+001
2244625125 -3.553196e+001 4.464757e+001 -5.981526e-001 1.089108e+002 -5.929082e-001 1.089170e+002 -4.417369e+001 2.433947e+001
2261499750 -3.730267e+001 2.952786e+001 -6.022308e-001 7.720257e+001 -5.974450e-001 7.724958e+001 -4.595770e+001 -7.001872e+001
2278374375 -4.003200e+001 2.915445e+001 -6.044329e-001 4.558340e+001 -6.018066e-001 4.558150e+001 -4.343425e+001 -1.543378e+002
2295249000 -4.060164e+001 5.475003e+001 -6.064047e-001 1.392908e+001 -6.003226e-001 1.396650e+001 -3.886832e+001 1.454515e+002
2312123625 -3.734220e+001 6.562475e+001 -6.065096e-001 -1.769637e+001 -6.062490e-001 -1.769383e+001 -3.674014e+001 1.053216e+002
2328998250 -3.559928e+001 5.946128e+001 -6.079993e-001 -4.937547e+001 -6.122236e-001 -4.931930e+001 -3.799894e+001 6.129287e+001
2345872875 -3.428482e+001 4.909508e+001 -6.164327e-001 -8.099135e+001 -6.091393e-001 -8.094291e+001 -4.338444e+001 1.201840e+001
2362747500 -3.368100e+001 4.004950e+001 -6.224850e-001 -1.125924e+002 -6.123839e-001 -1.126302e+002 -4.376014e+001 -1.062821e+002
2379622125 -3.419014e+001 3.092103e+001 -6.197740e-001 -1.442564e+002 -6.135665e-001 -1.442893e+002 -3.666731e+001 -1.723177e+002
2396496750 -3.489238e+001 2.064885e+001 -6.163511e-001 -1.759101e+002 -6.208481e-001 -1.759145e+002 -3.380891e+001 1.530187e+002
2413371375 -3.593702e+001 1.096299e+001 -6.197374e-001 1.524573e+002 -6.158149e-001 1.524516e+002 -3.271006e+001 1.180418e+002
2430246000 -3.789584e+001 5.876103e+000 -6.170779e-001 1.208313e+002 -6.250173e-001 1.208021e+002 -3.288187e+001 8.869452e+001
2447120625 -4.081782e+001 1.255016e+000 -6.187938e-001 8.914776e+001 -6.244873e-001 8.917673e+001 -3.612479e+001 6.122627e+001
2463995250 -4.467545e+001 1.120585e+001 -6.269914e-001 5.746924e+001 -6.271822e-001 5.756277e+001 -4.006339e+001 7.055080e+001
2480869875 -4.282442e+001 4.822129e+001 -6.290013e-001 2.586176e+001 -6.253992e-001 2.588607e+001 -4.131778e+001 9.583572e+001
2497744500 -4.095649e+001 5.459113e+001 -6.327938e-001 -5.766016e+000 -6.325634e-001 -5.724650e+000 -3.748132e+001 9.480322e+001
2514619125 -4.105307e+001 4.805911e+001 -6.417289e-001 -3.743001e+001 -6.389902e-001 -3.740419e+001 -3.682241e+001 7.852290e+001
2531493750 -4.192691e+001 6.413876e+001 -6.380031e-001 -6.905811e+001 -6.341434e-001 -6.902836e+001 -3.940442e+001 5.977254e+001
2548368375 -3.833174e+001 8.502962e+001 -6.348919e-001 -1.007038e+002 -6.320275e-001 -1.006921e+002 -4.789625e+001 8.621043e+001
2565243000 -3.512428e+001 7.989941e+001 -6.375131e-001 -1.323250e+002 -6.364794e-001 -1.323412e+002 -4.012055e+001 1.441837e+002
