!Agilent Technologies,N5230A,MY45000845,A.06.01.05
!Agilent N5230A: A.06.01.05
!Date: Wednesday, February 05, 2014 16:35:03
!Correction: S11(Full 2 Port(1,2)) S21(Full 2 Port(1,2)) S12(Full 2 Port(1,2)) S22(Full 2 Port(1,2)) 
!S2P File: Measurements: S11, S21, S12, S22:
# Hz S  dB   R 50
300000 3.008037e-002 -8.845879e-001 -5.491858e+001 -5.141325e+001 -5.180452e+001 1.444479e+002 -1.941666e+000 -1.298471e+000
17174625 -6.313787e-001 -3.268083e+001 -2.388440e+001 -1.526498e+002 -5.057058e+001 -3.923236e+001 -3.762884e+000 -6.433427e+001
34049250 -1.696747e+000 -6.048301e+001 -1.847892e+001 9.268607e+001 -5.058251e+001 -7.958305e+001 -5.562636e+000 -1.096418e+002
50923875 -2.812128e+000 -8.483576e+001 -1.833213e+001 2.788774e+001 -5.331219e+001 -1.186866e+002 -6.307446e+000 -1.510608e+002
67798500 -3.825285e+000 -1.065434e+002 -2.156681e+001 -1.769184e+001 -5.529681e+001 -1.589677e+002 -6.509200e+000 1.681618e+002
84673125 -4.702006e+000 -1.266568e+002 -3.660320e+001 -3.464856e+001 -5.471481e+001 1.718103e+002 -6.408470e+000 1.278674e+002
101547750 -5.384327e+000 -1.459916e+002 -2.124474e+001 7.988156e+001 -5.802616e+001 1.546357e+002 -6.152632e+000 8.804686e+001
118422375 -5.920193e+000 -1.649281e+002 -1.311040e+001 4.984852e+001 -6.200150e+001 1.274408e+002 -5.818996e+000 4.891406e+001
135297000 -6.351210e+000 1.761786e+002 -8.081413e+000 1.910184e+001 -6.008280e+001 7.574092e+001 -5.479547e+000 1.015310e+001
152171625 -6.721988e+000 1.573191e+002 -4.276848e+000 -1.145168e+001 -6.101702e+001 4.404473e+001 -5.171731e+000 -2.804810e+001
169046250 -7.012612e+000 1.385339e+002 -1.165462e+000 -4.192039e+001 -6.139716e+001 2.184812e+001 -4.773156e+000 -6.599966e+001
185920875 -7.174980e+000 1.187328e+002 1.535518e+000 -7.230186e+001 -6.369498e+001 -2.516765e+001 -4.638928e+000 -1.035819e+002
202795500 -7.464234e+000 9.961815e+001 3.829296e+000 -1.028039e+002 -6.482507e+001 -7.017660e+001 -4.454600e+000 -1.405906e+002
219670125 -7.632527e+000 8.023002e+001 5.871869e+000 -1.330949e+002 -6.443473e+001 -3.027363e+001 -4.333299e+000 -1.774221e+002
236544750 -7.752324e+000 6.083189e+001 7.710133e+000 -1.634274e+002 -6.034618e+001 -1.416252e+002 -4.259830e+000 1.460548e+002
253419375 -7.863939e+000 4.105328e+001 9.363344e+000 1.662582e+002 -6.538252e+001 1.780090e+002 -4.198518e+000 1.099351e+002
270294000 -7.948154e+000 2.157712e+001 1.085888e+001 1.359909e+002 -6.798524e+001 1.024992e+002 -4.173513e+000 7.425431e+001
287168625 -8.018850e+000 1.856757e+000 1.221792e+001 1.057225e+002 -6.734660e+001 -1.088541e+002 -4.187620e+000 3.861745e+001
304043250 -8.109027e+000 -1.774405e+001 1.343821e+001 7.548090e+001 -6.951735e+001 -8.059274e+001 -4.264331e+000 3.354326e+000
320917875 -8.141709e+000 -3.751270e+001 1.455991e+001 4.553500e+001 -6.445627e+001 -1.603973e+002 -4.377888e+000 -3.173419e+001
337792500 -8.180118e+000 -5.723193e+001 1.559893e+001 1.540601e+001 -7.063746e+001 -2.376941e+001 -4.485111e+000 -6.682204e+001
354667125 -8.209538e+000 -7.680299e+001 1.651736e+001 -1.463815e+001 -7.075166e+001 -5.369413e+001 -4.599154e+000 -1.016824e+002
371541750 -8.249084e+000 -9.611952e+001 1.734312e+001 -4.445192e+001 -6.902759e+001 -1.423344e+002 -4.752566e+000 -1.363279e+002
388416375 -8.321439e+000 -1.154751e+002 1.809814e+001 -7.400718e+001 -7.376080e+001 -1.729850e+002 -4.925054e+000 -1.704630e+002
405291000 -8.402506e+000 -1.346683e+002 1.879014e+001 -1.033497e+002 -7.441414e+001 -2.001923e+001 -5.106364e+000 1.556006e+002
422165625 -8.493187e+000 -1.542110e+002 1.943478e+001 -1.324782e+002 -6.950653e+001 1.649421e+002 -5.278954e+000 1.220854e+002
439040250 -8.598984e+000 -1.737795e+002 2.005453e+001 -1.614919e+002 -6.775623e+001 5.941579e+001 -5.423385e+000 8.904310e+001
455914875 -8.683397e+000 1.666885e+002 2.063248e+001 1.695623e+002 -7.058458e+001 1.919872e+001 -5.587559e+000 5.625777e+001
472789500 -8.766258e+000 1.469067e+002 2.118424e+001 1.407070e+002 -7.386869e+001 7.773454e+001 -5.811026e+000 2.373431e+001
489664125 -8.809059e+000 1.273095e+002 2.170376e+001 1.118547e+002 -6.560802e+001 1.004466e+001 -6.098663e+000 -9.023875e+000
506538750 -8.903126e+000 1.075491e+002 2.218153e+001 8.309194e+001 -6.442822e+001 -2.105329e+001 -6.400684e+000 -4.205512e+001
523413375 -8.982718e+000 8.796739e+001 2.262343e+001 5.432098e+001 -6.642213e+001 -4.546209e+001 -6.745017e+000 -7.528550e+001
540288000 -9.049128e+000 6.794207e+001 2.303478e+001 2.576295e+001 -6.988701e+001 -1.128444e+002 -7.037601e+000 -1.086382e+002
557162625 -9.121248e+000 4.816003e+001 2.340930e+001 -2.818511e+000 -6.355761e+001 -9.585973e+001 -7.304034e+000 -1.419864e+002
574037250 -9.179947e+000 2.839062e+001 2.375788e+001 -3.137120e+001 -7.064346e+001 -8.177227e+001 -7.568114e+000 -1.752985e+002
590911875 -9.207318e+000 8.617443e+000 2.406994e+001 -5.972654e+001 -7.192855e+001 1.087272e+002 -7.782418e+000 1.513911e+002
607786500 -9.225697e+000 -1.103633e+001 2.435516e+001 -8.797794e+001 -6.177475e+001 -1.752124e+002 -7.954304e+000 1.182930e+002
624661125 -9.268299e+000 -3.044004e+001 2.462739e+001 -1.160567e+002 -7.087672e+001 1.581881e+002 -8.064751e+000 8.551524e+001
641535750 -9.367662e+000 -4.988847e+001 2.488372e+001 -1.440611e+002 -7.036913e+001 4.318447e+001 -8.178367e+000 5.359673e+001
658410375 -9.480220e+000 -6.914462e+001 2.512005e+001 -1.719485e+002 -7.508607e+001 1.351015e+002 -8.239865e+000 2.206962e+001
675285000 -9.644239e+000 -8.878941e+001 2.535962e+001 1.602244e+002 -6.387926e+001 1.172142e+002 -8.432390e+000 -9.180808e+000
692159625 -9.750026e+000 -1.082146e+002 2.558963e+001 1.325409e+002 -6.257350e+001 4.114637e+001 -8.653326e+000 -4.049783e+001
709034250 -9.933588e+000 -1.281849e+002 2.580047e+001 1.048561e+002 -8.225549e+001 1.773039e+002 -8.901690e+000 -7.221194e+001
725908875 -1.008186e+001 -1.480939e+002 2.600356e+001 7.721113e+001 -7.412751e+001 1.260775e+002 -9.139388e+000 -1.038638e+002
742783500 -1.023571e+001 -1.683439e+002 2.619278e+001 4.959551e+001 -7.491138e+001 -6.441797e+001 -9.332342e+000 -1.354931e+002
759658125 -1.034151e+001 1.715092e+002 2.637740e+001 2.205331e+001 -6.445362e+001 -6.399619e+001 -9.549218e+000 -1.670683e+002
776532750 -1.048517e+001 1.508784e+002 2.654796e+001 -5.431209e+000 -7.515600e+001 1.524729e+002 -9.761357e+000 1.612408e+002
793407375 -1.056965e+001 1.299233e+002 2.670537e+001 -3.297245e+001 -6.236323e+001 -1.329683e+002 -9.964709e+000 1.296602e+002
810282000 -1.060782e+001 1.092366e+002 2.685868e+001 -6.033084e+001 -7.092621e+001 -1.048292e+002 -1.010676e+001 9.805547e+001
827156625 -1.060014e+001 8.851817e+001 2.699506e+001 -8.763842e+001 -7.048778e+001 5.642778e+001 -1.022571e+001 6.692652e+001
844031250 -1.058834e+001 6.830553e+001 2.713383e+001 -1.148826e+002 -6.511717e+001 -1.451182e+002 -1.040653e+001 3.614686e+001
860905875 -1.052173e+001 4.799094e+001 2.727268e+001 -1.421300e+002 -6.599535e+001 1.293535e+002 -1.059292e+001 5.673209e+000
877780500 -1.044391e+001 2.801491e+001 2.739411e+001 -1.693683e+002 -7.139625e+001 1.475540e+002 -1.090048e+001 -2.519849e+001
894655125 -1.035477e+001 8.438634e+000 2.751238e+001 1.634557e+002 -6.694248e+001 1.883146e+000 -1.127843e+001 -5.649096e+001
911529750 -1.030401e+001 -1.084750e+001 2.762164e+001 1.363204e+002 -6.677269e+001 -1.200815e+002 -1.162266e+001 -8.819740e+001
928404375 -1.026019e+001 -2.966881e+001 2.772258e+001 1.091904e+002 -6.742077e+001 5.511901e+001 -1.199325e+001 -1.207501e+002
945279000 -1.024590e+001 -4.848781e+001 2.781826e+001 8.216653e+001 -6.752113e+001 -5.587699e+000 -1.225888e+001 -1.535198e+002
962153625 -1.031646e+001 -6.729917e+001 2.790491e+001 5.512892e+001 -7.119189e+001 2.248976e+001 -1.239464e+001 1.739039e+002
979028250 -1.039082e+001 -8.625175e+001 2.798518e+001 2.815294e+001 -1.034413e+002 -3.292830e+001 -1.249685e+001 1.409827e+002
995902875 -1.052112e+001 -1.053015e+002 2.806417e+001 1.261460e+000 -6.523262e+001 -5.436965e+001 -1.248869e+001 1.087155e+002
1012777500 -1.063947e+001 -1.243466e+002 2.813797e+001 -2.555230e+001 -6.947093e+001 -7.667240e+001 -1.238407e+001 7.740045e+001
1029652125 -1.080426e+001 -1.436236e+002 2.821068e+001 -5.231014e+001 -6.590586e+001 -6.706078e+001 -1.231917e+001 4.677179e+001
1046526750 -1.092157e+001 -1.632158e+002 2.829005e+001 -7.907131e+001 -7.388747e+001 -9.961720e+001 -1.228809e+001 1.682743e+001
1063401375 -1.104909e+001 1.772650e+002 2.836992e+001 -1.057788e+002 -6.962457e+001 -1.096926e+002 -1.236693e+001 -1.265261e+001
1080276000 -1.123971e+001 1.572358e+002 2.845056e+001 -1.325047e+002 -6.327790e+001 -1.767777e+002 -1.254966e+001 -4.193929e+001
1097150625 -1.137134e+001 1.369320e+002 2.852958e+001 -1.592311e+002 -7.055602e+001 1.733176e+002 -1.281615e+001 -7.144028e+001
1114025250 -1.147325e+001 1.162941e+002 2.860594e+001 1.740079e+002 -6.605964e+001 1.122947e+002 -1.319823e+001 -1.013355e+002
1130899875 -1.150207e+001 9.568697e+001 2.867105e+001 1.472574e+002 -7.101307e+001 7.649903e+001 -1.362355e+001 -1.317361e+002
1147774500 -1.145844e+001 7.556026e+001 2.873206e+001 1.205570e+002 -6.385124e+001 8.179684e+001 -1.410444e+001 -1.631129e+002
1164649125 -1.139473e+001 5.572645e+001 2.879598e+001 9.387488e+001 -6.562012e+001 4.448505e+001 -1.452817e+001 1.646304e+002
1181523750 -1.132954e+001 3.642574e+001 2.885172e+001 6.720469e+001 -6.472031e+001 5.291174e+001 -1.480185e+001 1.317460e+002
1198398375 -1.130181e+001 1.716063e+001 2.890048e+001 4.051117e+001 -6.667741e+001 -7.362772e+000 -1.493985e+001 9.873224e+001
1215273000 -1.131795e+001 -1.907056e+000 2.894281e+001 1.388872e+001 -7.120692e+001 -2.228149e+001 -1.495368e+001 6.649918e+001
1232147625 -1.138019e+001 -2.104810e+001 2.897877e+001 -1.267579e+001 -7.189777e+001 9.686684e+001 -1.497989e+001 3.489416e+001
1249022250 -1.140938e+001 -4.010681e+001 2.902792e+001 -3.918159e+001 -6.689091e+001 -8.472489e+001 -1.496199e+001 3.905116e+000
1265896875 -1.146778e+001 -5.896129e+001 2.907129e+001 -6.569634e+001 -6.599047e+001 -1.599539e+002 -1.500374e+001 -2.660633e+001
1282771500 -1.158324e+001 -7.776498e+001 2.911036e+001 -9.221397e+001 -6.445383e+001 -7.542292e+001 -1.509716e+001 -5.677289e+001
1299646125 -1.171121e+001 -9.648090e+001 2.915075e+001 -1.186518e+002 -6.730908e+001 -1.279478e+002 -1.523752e+001 -8.676018e+001
1316520750 -1.191491e+001 -1.155915e+002 2.920087e+001 -1.451300e+002 -6.141894e+001 -1.303884e+002 -1.548981e+001 -1.166019e+002
1333395375 -1.220139e+001 -1.351556e+002 2.925012e+001 -1.716156e+002 -6.447759e+001 1.272273e+002 -1.589156e+001 -1.474033e+002
1350270000 -1.248370e+001 -1.553216e+002 2.929277e+001 1.618678e+002 -6.776154e+001 1.193127e+002 -1.629136e+001 -1.788291e+002
1367144625 -1.268292e+001 -1.763618e+002 2.933178e+001 1.353106e+002 -6.467034e+001 5.270749e+001 -1.657312e+001 1.485987e+002
1384019250 -1.282432e+001 1.624914e+002 2.936712e+001 1.088204e+002 -6.731797e+001 4.974476e+001 -1.673886e+001 1.158370e+002
1400893875 -1.286003e+001 1.414689e+002 2.939245e+001 8.231530e+001 -7.811231e+001 1.909028e+001 -1.672965e+001 8.424915e+001
1417768500 -1.288426e+001 1.202610e+002 2.941539e+001 5.583077e+001 -6.538543e+001 5.411860e+001 -1.671961e+001 5.302220e+001
1434643125 -1.282850e+001 9.955668e+001 2.942865e+001 2.936823e+001 -6.827966e+001 3.781557e+001 -1.682186e+001 2.279670e+001
1451517750 -1.276648e+001 7.920388e+001 2.944261e+001 2.992181e+000 -6.925105e+001 6.023126e+001 -1.695317e+001 -7.475953e+000
1468392375 -1.263423e+001 5.905645e+001 2.945735e+001 -2.333950e+001 -6.089041e+001 -4.157079e+001 -1.714375e+001 -3.709453e+001
1485267000 -1.250817e+001 3.907539e+001 2.947734e+001 -4.964532e+001 -7.294588e+001 -4.982957e+001 -1.750170e+001 -6.714056e+001
1502141625 -1.232757e+001 1.960959e+001 2.949207e+001 -7.597640e+001 -6.597016e+001 -1.037140e+002 -1.798215e+001 -9.673921e+001
1519016250 -1.219816e+001 7.594454e-001 2.951228e+001 -1.023316e+002 -7.831863e+001 -5.898546e+001 -1.864615e+001 -1.273719e+002
1535890875 -1.211494e+001 -1.755951e+001 2.952637e+001 -1.286341e+002 -7.479922e+001 -1.109114e+002 -1.965950e+001 -1.605202e+002
1552765500 -1.213781e+001 -3.561807e+001 2.955395e+001 -1.549605e+002 -6.770049e+001 -7.022498e+001 -2.048565e+001 1.630948e+002
1569640125 -1.226032e+001 -5.369630e+001 2.956292e+001 1.787114e+002 -6.317346e+001 -1.762415e+002 -2.071346e+001 1.235081e+002
1586514750 -1.246072e+001 -7.250285e+001 2.958226e+001 1.523462e+002 -6.570632e+001 9.381075e+001 -2.031274e+001 8.527194e+001
1603389375 -1.268659e+001 -9.145021e+001 2.959212e+001 1.260198e+002 -6.808469e+001 1.586268e+002 -1.957784e+001 4.959874e+001
1620264000 -1.292784e+001 -1.112446e+002 2.959480e+001 9.967773e+001 -6.905800e+001 1.678684e+002 -1.882540e+001 1.642963e+001
1637138625 -1.317801e+001 -1.312805e+002 2.959349e+001 7.336833e+001 -6.270074e+001 4.874269e+001 -1.807371e+001 -1.480147e+001
1654013250 -1.341615e+001 -1.520720e+002 2.959394e+001 4.712189e+001 -7.126837e+001 -1.776508e+002 -1.748737e+001 -4.416203e+001
1670887875 -1.359669e+001 -1.734024e+002 2.958342e+001 2.087529e+001 -6.879033e+001 5.287151e+001 -1.698858e+001 -7.251639e+001
1687762500 -1.371660e+001 1.646324e+002 2.957425e+001 -5.339917e+000 -6.905272e+001 4.260102e+001 -1.671519e+001 -9.968153e+001
1704637125 -1.371228e+001 1.426684e+002 2.957766e+001 -3.148446e+001 -6.835559e+001 1.334648e+000 -1.672438e+001 -1.264872e+002
1721511750 -1.351864e+001 1.208045e+002 2.956969e+001 -5.768563e+001 -6.551134e+001 -7.479317e+000 -1.699460e+001 -1.531450e+002
1738386375 -1.325116e+001 9.920811e+001 2.956690e+001 -8.387376e+001 -6.385944e+001 -9.354350e+001 -1.751889e+001 1.773955e+002
1755261000 -1.290405e+001 7.874804e+001 2.955252e+001 -1.100403e+002 -6.522173e+001 -1.107607e+002 -1.800956e+001 1.465135e+002
1772135625 -1.256071e+001 5.926783e+001 2.953857e+001 -1.361524e+002 -6.932240e+001 -1.579542e+002 -1.839999e+001 1.145614e+002
1789010250 -1.224815e+001 4.037489e+001 2.952447e+001 -1.622240e+002 -6.560732e+001 -1.434972e+002 -1.858545e+001 8.167934e+001
1805884875 -1.198760e+001 2.219717e+001 2.951650e+001 1.716910e+002 -6.612016e+001 -1.796108e+002 -1.864177e+001 4.953959e+001
1822759500 -1.180155e+001 4.383637e+000 2.950157e+001 1.457346e+002 -6.800292e+001 7.345468e+001 -1.866264e+001 1.748679e+001
1839634125 -1.169688e+001 -1.288394e+001 2.949600e+001 1.197630e+002 -6.503407e+001 1.694931e+002 -1.851227e+001 -1.451822e+001
1856508750 -1.166692e+001 -3.005710e+001 2.949305e+001 9.381133e+001 -6.714250e+001 1.644264e+002 -1.831433e+001 -4.549678e+001
1873383375 -1.176429e+001 -4.731947e+001 2.950396e+001 6.795425e+001 -7.204408e+001 -1.456754e+002 -1.808285e+001 -7.533591e+001
1890258000 -1.198308e+001 -6.464711e+001 2.951421e+001 4.195776e+001 -7.165605e+001 1.166998e+002 -1.798124e+001 -1.038672e+002
1907132625 -1.226264e+001 -8.291240e+001 2.953435e+001 1.602150e+001 -6.555241e+001 5.258939e+001 -1.819135e+001 -1.319102e+002
1924007250 -1.260816e+001 -1.016364e+002 2.955485e+001 -1.000818e+001 -7.355795e+001 -6.051276e+001 -1.863013e+001 -1.605866e+002
1940881875 -1.300623e+001 -1.211506e+002 2.958470e+001 -3.603996e+001 -7.079451e+001 -4.559621e+001 -1.927019e+001 1.683728e+002
1957756500 -1.340749e+001 -1.417567e+002 2.960834e+001 -6.220483e+001 -6.685319e+001 -6.578796e+000 -1.990758e+001 1.353117e+002
1974631125 -1.369504e+001 -1.630663e+002 2.961477e+001 -8.836380e+001 -6.458183e+001 -3.738365e+001 -2.016083e+001 1.000749e+002
1991505750 -1.397517e+001 1.748643e+002 2.961637e+001 -1.145122e+002 -6.964491e+001 -4.608144e+001 -2.012730e+001 6.544373e+001
2008380375 -1.415238e+001 1.525359e+002 2.961539e+001 -1.406600e+002 -7.507318e+001 -1.400920e+002 -1.989618e+001 3.138076e+001
2025255000 -1.409460e+001 1.297594e+002 2.960530e+001 -1.667884e+002 -7.420711e+001 1.095934e+002 -1.955289e+001 -1.611740e+000
2042129625 -1.387056e+001 1.071880e+002 2.958829e+001 1.670961e+002 -7.347481e+001 -8.226324e+001 -1.901746e+001 -3.320047e+001
2059004250 -1.352923e+001 8.559055e+001 2.956251e+001 1.410295e+002 -7.620974e+001 -1.024706e+002 -1.846023e+001 -6.320098e+001
2075878875 -1.316292e+001 6.537653e+001 2.953590e+001 1.150946e+002 -7.074798e+001 -1.594449e+002 -1.810384e+001 -9.174378e+001
2092753500 -1.276851e+001 4.634559e+001 2.951454e+001 8.918661e+001 -6.689105e+001 -1.529535e+002 -1.791967e+001 -1.188942e+002
2109628125 -1.246280e+001 2.812742e+001 2.950590e+001 6.330828e+001 -7.641377e+001 -3.302150e+001 -1.802947e+001 -1.454539e+002
2126502750 -1.224332e+001 1.030565e+001 2.950083e+001 3.749309e+001 -7.130954e+001 1.787444e+002 -1.848740e+001 -1.724401e+002
2143377375 -1.216138e+001 -7.241475e+000 2.949917e+001 1.161854e+001 -6.884594e+001 1.550506e+001 -1.911875e+001 1.581255e+002
2160252000 -1.214306e+001 -2.514534e+001 2.950262e+001 -1.424128e+001 -7.143351e+001 1.156893e+002 -1.970434e+001 1.270143e+002
2177126625 -1.219029e+001 -4.276687e+001 2.950797e+001 -4.011502e+001 -6.993623e+001 -2.220403e+001 -2.027055e+001 9.341671e+001
2194001250 -1.230005e+001 -6.019717e+001 2.951997e+001 -6.599545e+001 -6.464943e+001 3.812291e+001 -2.064009e+001 5.834129e+001
2210875875 -1.250564e+001 -7.803754e+001 2.953522e+001 -9.196455e+001 -6.770929e+001 1.134982e+001 -2.063342e+001 2.332912e+001
2227750500 -1.279745e+001 -9.618276e+001 2.954311e+001 -1.178936e+002 -6.959232e+001 1.619839e+002 -2.027991e+001 -1.151710e+001
2244625125 -1.320583e+001 -1.153087e+002 2.955132e+001 -1.438450e+002 -7.978313e+001 1.510490e+002 -1.972137e+001 -4.486492e+001
2261499750 -1.364185e+001 -1.353607e+002 2.955802e+001 -1.698484e+002 -7.393472e+001 -1.090255e+002 -1.902188e+001 -7.543160e+001
2278374375 -1.404753e+001 -1.563890e+002 2.956153e+001 1.641721e+002 -6.250972e+001 -1.274124e+002 -1.856971e+001 -1.039298e+002
2295249000 -1.434684e+001 -1.790078e+002 2.956342e+001 1.381640e+002 -7.321685e+001 -1.711024e+002 -1.829265e+001 -1.312297e+002
2312123625 -1.442699e+001 1.583119e+002 2.956196e+001 1.121980e+002 -6.660584e+001 1.556819e+002 -1.831215e+001 -1.583491e+002
2328998250 -1.433188e+001 1.359756e+002 2.955631e+001 8.623495e+001 -6.835947e+001 1.407665e+002 -1.857689e+001 1.747752e+002
2345872875 -1.411267e+001 1.142935e+002 2.955200e+001 6.028551e+001 -7.689931e+001 -9.877323e+001 -1.904088e+001 1.462190e+002
2362747500 -1.388591e+001 9.306435e+001 2.954596e+001 3.432586e+001 -6.793183e+001 1.699232e+002 -1.970512e+001 1.173594e+002
2379622125 -1.359787e+001 7.295783e+001 2.953255e+001 8.341969e+000 -6.619595e+001 7.045908e+001 -2.045585e+001 8.575125e+001
2396496750 -1.331678e+001 5.293430e+001 2.952638e+001 -1.755408e+001 -7.897931e+001 -3.812285e+000 -2.123947e+001 5.144237e+001
2413371375 -1.301937e+001 3.370726e+001 2.951699e+001 -4.348567e+001 -7.360612e+001 -1.547824e+001 -2.169032e+001 1.463700e+001
2430246000 -1.275278e+001 1.545244e+001 2.949998e+001 -6.937183e+001 -7.803439e+001 -5.940448e+001 -2.146509e+001 -2.263702e+001
2447120625 -1.258730e+001 -2.211282e+000 2.948778e+001 -9.524044e+001 -6.677357e+001 3.777732e+001 -2.097523e+001 -5.889551e+001
2463995250 -1.249447e+001 -1.943573e+001 2.947539e+001 -1.210415e+002 -7.148464e+001 -8.283911e+001 -2.024685e+001 -9.222318e+001
2480869875 -1.253791e+001 -3.622017e+001 2.947258e+001 -1.468612e+002 -6.735368e+001 -6.347910e+001 -1.953283e+001 -1.228963e+002
2497744500 -1.276067e+001 -5.380964e+001 2.947590e+001 -1.726476e+002 -6.335147e+001 -1.145524e+002 -1.901704e+001 -1.526479e+002
2514619125 -1.301731e+001 -7.190198e+001 2.947798e+001 1.615056e+002 -6.170011e+001 -1.269911e+002 -1.867479e+001 1.777944e+002
2531493750 -1.338669e+001 -9.063021e+001 2.949167e+001 1.356536e+002 -6.870251e+001 -1.042771e+002 -1.839302e+001 1.486555e+002
2548368375 -1.373580e+001 -1.102568e+002 2.950005e+001 1.097340e+002 -6.327213e+001 1.365709e+002 -1.824832e+001 1.201206e+002
2565243000 -1.407759e+001 -1.306615e+002 2.950954e+001 8.384133e+001 -6.834437e+001 3.254305e+001 -1.824165e+001 8.998077e+001
2582117625 -1.440043e+001 -1.519172e+002 2.950910e+001 5.780487e+001 -6.587857e+001 6.170361e+001 -1.828059e+001 5.960066e+001
