!Agilent Technologies,N5230A,MY45000845,A.06.01.05
!Agilent N5230A: A.06.01.05
!Date: Wednesday, February 05, 2014 16:39:50
!Correction: S11(Full 2 Port(1,2)) S21(Full 2 Port(1,2)) S12(Full 2 Port(1,2)) S22(Full 2 Port(1,2)) 
!S2P File: Measurements: S11, S21, S12, S22:
# Hz S  dB   R 50
300000 -2.223862e+001 -1.027743e+001 -6.415924e+001 -1.682417e+002 -5.448674e+001 1.357229e+002 -1.711384e+001 -1.760916e+002
17174625 -2.345181e+001 -5.289859e+001 -6.842528e+001 1.094933e+002 -7.055943e+001 1.198151e+002 -1.725470e+001 9.630736e+001
34049250 -2.573690e+001 -1.055201e+002 -6.768072e+001 -1.241269e+002 -7.646479e+001 -7.135013e+001 -1.701294e+001 1.997626e+001
50923875 -2.790529e+001 -1.648468e+002 -7.059037e+001 -1.616230e+001 -6.444402e+001 1.713416e+002 -1.729491e+001 -5.399022e+001
67798500 -2.835974e+001 1.365313e+002 -7.856155e+001 -1.612408e+002 -7.119008e+001 8.863078e+001 -1.824519e+001 -1.304832e+002
84673125 -2.708374e+001 8.789214e+001 -7.339817e+001 2.500746e+001 -7.184970e+001 7.943292e+001 -1.903684e+001 1.479985e+002
101547750 -2.613541e+001 5.178690e+001 -7.775509e+001 -3.335422e+001 -7.553009e+001 -1.459421e+002 -1.916432e+001 6.645550e+001
118422375 -2.575107e+001 2.061898e+001 -7.747619e+001 -1.289621e+002 -6.743232e+001 -3.637418e+001 -1.935175e+001 -1.281524e+001
135297000 -2.600403e+001 -8.058909e+000 -7.784032e+001 -1.574468e+002 -7.061192e+001 -1.789320e+002 -1.975957e+001 -9.446155e+001
152171625 -2.689848e+001 -3.638577e+001 -7.701006e+001 -9.350803e+001 -7.141580e+001 6.734639e+001 -1.957471e+001 -1.793967e+002
169046250 -2.863473e+001 -6.844292e+001 -7.545559e+001 2.748005e+001 -7.269939e+001 -7.947638e+001 -1.845487e+001 9.884570e+001
185920875 -3.130991e+001 -1.072727e+002 -6.676559e+001 -1.681033e+001 -7.518544e+001 1.169329e+002 -1.763054e+001 2.360457e+001
202795500 -3.355048e+001 -1.613315e+002 -6.826999e+001 1.474630e+002 -6.765131e+001 2.156882e+001 -1.741987e+001 -4.908539e+001
219670125 -3.178823e+001 1.362436e+002 -7.449593e+001 -8.950143e+001 -7.040411e+001 -7.489526e+000 -1.791029e+001 -1.242529e+002
236544750 -2.861258e+001 9.425277e+001 -7.388335e+001 -7.744128e+001 -7.327837e+001 1.213062e+001 -1.831807e+001 1.568745e+002
253419375 -2.590823e+001 6.343150e+001 -7.008008e+001 -1.731440e+002 -7.301930e+001 5.501330e+001 -1.832269e+001 7.834595e+001
270294000 -2.402961e+001 3.747599e+001 -6.481908e+001 -8.574293e+001 -6.774437e+001 4.105301e+001 -1.861939e+001 2.554107e+000
287168625 -2.294370e+001 1.281698e+001 -6.673395e+001 -6.156015e+000 -6.972379e+001 -8.847224e+001 -1.933166e+001 -7.657217e+001
304043250 -2.258829e+001 -1.067513e+001 -6.970311e+001 8.066240e+001 -7.013992e+001 1.087244e+002 -1.969634e+001 -1.616798e+002
320917875 -2.260667e+001 -3.397602e+001 -7.328152e+001 -1.241556e+002 -7.590730e+001 -6.400570e+001 -1.884530e+001 1.175337e+002
337792500 -2.326410e+001 -5.692301e+001 -6.776680e+001 -1.403916e+002 -6.758755e+001 4.551777e+001 -1.823570e+001 4.541275e+001
354667125 -2.454194e+001 -8.088505e+001 -6.969582e+001 1.255772e+002 -7.487193e+001 -6.559615e+001 -1.899376e+001 -2.555190e+001
371541750 -2.681656e+001 -1.060086e+002 -7.657224e+001 -4.515548e+001 -6.507088e+001 1.015305e+002 -2.109052e+001 -1.055960e+002
388416375 -3.102210e+001 -1.349757e+002 -8.169408e+001 -1.141481e+002 -9.022607e+001 -1.718625e+002 -2.171305e+001 1.570886e+002
405291000 -3.840958e+001 1.605889e+002 -6.537669e+001 2.289783e+001 -7.817329e+001 3.550124e+001 -1.917911e+001 7.037043e+001
422165625 -3.425815e+001 6.189368e+001 -6.780194e+001 -7.371229e+001 -7.482461e+001 2.963615e+001 -1.743483e+001 4.725645e-001
439040250 -2.842451e+001 2.406691e+001 -6.466410e+001 1.118160e+002 -7.713959e+001 -1.326082e+001 -1.753861e+001 -6.629270e+001
455914875 -2.534529e+001 -4.226081e+000 -8.610934e+001 1.182584e+002 -7.162611e+001 -1.509660e+002 -1.898129e+001 -1.406913e+002
472789500 -2.362954e+001 -2.920221e+001 -7.046616e+001 -1.265131e+002 -6.897534e+001 1.656161e+001 -1.982241e+001 1.337881e+002
489664125 -2.287530e+001 -5.436029e+001 -6.989051e+001 -9.423156e+001 -7.130833e+001 8.968826e+001 -1.907677e+001 5.164108e+001
506538750 -2.264153e+001 -8.013663e+001 -8.935202e+001 -1.731895e+002 -7.568221e+001 8.115556e+001 -1.856669e+001 -2.293229e+001
523413375 -2.286834e+001 -1.082414e+002 -6.748685e+001 9.806001e+001 -7.129150e+001 -2.009685e+001 -1.918444e+001 -9.662812e+001
540288000 -2.360162e+001 -1.365488e+002 -7.008637e+001 -2.815941e+000 -8.146764e+001 -2.616368e+000 -2.013187e+001 -1.762311e+002
557162625 -2.451140e+001 -1.695574e+002 -7.666983e+001 1.521235e+002 -6.776514e+001 2.727844e+000 -2.013582e+001 9.999645e+001
574037250 -2.509589e+001 1.520332e+002 -7.278446e+001 -5.610445e+001 -6.652823e+001 -8.858826e+001 -1.928689e+001 2.098553e+001
590911875 -2.534550e+001 1.090724e+002 -6.842548e+001 1.654652e+002 -6.554042e+001 -1.151225e+002 -1.904005e+001 -5.185206e+001
607786500 -2.451067e+001 6.737483e+001 -7.108351e+001 -1.495794e+002 -8.576218e+001 -9.507182e+001 -1.993548e+001 -1.273662e+002
624661125 -2.327730e+001 3.193001e+001 -7.231690e+001 2.097632e+001 -7.592872e+001 -1.649459e+002 -2.062542e+001 1.475121e+002
641535750 -2.232642e+001 1.815827e+000 -6.698591e+001 4.246413e+001 -7.291061e+001 -1.563279e+002 -1.973582e+001 6.502417e+001
658410375 -2.180929e+001 -2.609738e+001 -7.924134e+001 4.826283e+000 -7.665014e+001 7.847173e+001 -1.902514e+001 -9.431181e+000
675285000 -2.195310e+001 -5.278971e+001 -7.232625e+001 -4.800655e+001 -7.432616e+001 -1.421366e+002 -1.982990e+001 -8.402140e+001
692159625 -2.243968e+001 -8.019289e+001 -6.763548e+001 6.176072e+001 -7.023727e+001 -1.770980e+002 -2.076379e+001 -1.704843e+002
709034250 -2.359142e+001 -1.105718e+002 -6.803957e+001 -1.604890e+002 -6.289656e+001 2.301433e+001 -1.952303e+001 1.016364e+002
725908875 -2.550555e+001 -1.470874e+002 -7.032658e+001 -1.327108e+002 -6.854679e+001 -7.479302e+001 -1.770907e+001 2.704901e+001
742783500 -2.743040e+001 1.672211e+002 -6.674830e+001 1.681878e+001 -6.550235e+001 9.867264e+001 -1.700371e+001 -3.948769e+001
759658125 -2.754065e+001 1.144877e+002 -7.324741e+001 -2.967996e+001 -7.409416e+001 -5.183944e+001 -1.783815e+001 -1.047809e+002
776532750 -2.561405e+001 6.675803e+001 -7.147279e+001 -1.026536e+002 -7.116119e+001 -5.744931e+001 -2.004792e+001 -1.761560e+002
793407375 -2.330962e+001 3.016410e+001 -7.543468e+001 -1.084719e+002 -6.772385e+001 -1.669502e+002 -2.261189e+001 9.688785e+001
810282000 -2.166564e+001 7.624339e-001 -6.905527e+001 -1.707177e+002 -7.967902e+001 1.478367e+002 -2.277796e+001 3.485294e+000
827156625 -2.058718e+001 -2.551951e+001 -7.175423e+001 5.962903e+000 -6.927708e+001 -5.181055e+001 -2.231782e+001 -8.284915e+001
844031250 -2.003889e+001 -5.170629e+001 -6.387822e+001 5.422193e+001 -7.134524e+001 -5.600211e+001 -2.153592e+001 -1.701461e+002
860905875 -2.002801e+001 -7.834715e+001 -7.194537e+001 -5.005636e+001 -6.569334e+001 1.182738e+002 -1.952540e+001 1.075038e+002
877780500 -2.079759e+001 -1.052396e+002 -7.224706e+001 1.592879e+002 -6.115812e+001 1.555096e+002 -1.763658e+001 3.681233e+001
894655125 -2.204807e+001 -1.341180e+002 -7.044255e+001 1.502848e+002 -7.328918e+001 1.771367e+002 -1.728685e+001 -2.798341e+001
911529750 -2.375629e+001 -1.677371e+002 -7.209733e+001 4.305643e+001 -7.655119e+001 1.474796e+002 -1.862564e+001 -9.486541e+001
928404375 -2.542740e+001 1.501243e+002 -7.208644e+001 -7.666439e+001 -6.874141e+001 8.992516e+001 -2.124323e+001 -1.770561e+002
945279000 -2.572471e+001 1.012825e+002 -6.586800e+001 -4.048783e+001 -7.171162e+001 1.537866e+002 -2.117019e+001 8.487778e+001
962153625 -2.442716e+001 5.680870e+001 -6.356981e+001 -1.365329e+002 -7.142746e+001 7.892663e+001 -1.866938e+001 5.022270e+000
979028250 -2.276776e+001 2.002315e+001 -6.918304e+001 1.398225e+002 -7.337076e+001 -7.745107e+001 -1.754187e+001 -5.952112e+001
995902875 -2.157994e+001 -1.213182e+001 -6.686074e+001 8.121060e+001 -6.981398e+001 -8.869313e+001 -1.846166e+001 -1.230025e+002
1012777500 -2.094880e+001 -4.219508e+001 -8.899365e+001 1.086698e+002 -7.627423e+001 9.057689e+001 -2.111074e+001 1.638390e+002
1029652125 -2.074441e+001 -7.097771e+001 -6.599413e+001 -8.648224e+001 -6.737444e+001 9.569178e+001 -2.337111e+001 7.020209e+001
1046526750 -2.101782e+001 -1.009847e+002 -7.861746e+001 1.240531e+002 -7.160923e+001 2.110466e+001 -2.207905e+001 -2.252949e+001
1063401375 -2.155702e+001 -1.315371e+002 -7.412147e+001 1.236619e+001 -6.730025e+001 2.236339e+000 -2.087609e+001 -1.006794e+002
1080276000 -2.227680e+001 -1.652592e+002 -7.324410e+001 4.371674e+001 -7.487132e+001 1.563111e+002 -2.060637e+001 -1.791654e+002
1097150625 -2.298196e+001 1.562678e+002 -6.805332e+001 -7.504296e+001 -6.940319e+001 -1.550962e+002 -1.980718e+001 9.825011e+001
1114025250 -2.276687e+001 1.137465e+002 -7.519563e+001 -7.322580e+001 -7.465418e+001 -1.566175e+002 -1.819246e+001 2.267987e+001
1130899875 -2.171178e+001 7.387703e+001 -6.158476e+001 8.724432e+001 -8.653671e+001 -1.464051e+002 -1.725485e+001 -4.444720e+001
1147774500 -2.046012e+001 3.948807e+001 -6.416054e+001 4.382965e+000 -7.017923e+001 -1.637258e+002 -1.798956e+001 -1.087276e+002
1164649125 -1.947553e+001 1.034649e+001 -6.599274e+001 -5.204392e+001 -7.293356e+001 -1.578289e+002 -2.065029e+001 1.774393e+002
1181523750 -1.903754e+001 -1.550176e+001 -6.331414e+001 -1.479666e+002 -6.999480e+001 4.030312e+001 -2.234210e+001 8.163348e+001
1198398375 -1.889369e+001 -4.114450e+001 -6.544927e+001 1.402399e+002 -6.922249e+001 8.216446e+001 -2.028141e+001 -6.862452e+000
1215273000 -1.932612e+001 -6.694906e+001 -6.863460e+001 8.249503e+001 -7.769611e+001 5.965228e+000 -1.913751e+001 -7.596315e+001
1232147625 -2.007820e+001 -9.309647e+001 -7.200497e+001 -2.142491e+001 -6.280409e+001 8.162424e+001 -2.015103e+001 -1.423553e+002
1249022250 -2.135405e+001 -1.210634e+002 -6.387563e+001 -6.100211e+001 -7.943208e+001 -2.152181e+001 -2.334330e+001 1.384391e+002
1265896875 -2.345341e+001 -1.521896e+002 -6.936398e+001 -1.156024e+002 -6.776130e+001 1.162340e+001 -2.415431e+001 3.125535e+001
1282771500 -2.662512e+001 1.676237e+002 -6.629717e+001 1.531607e+002 -7.128548e+001 3.945977e+001 -2.065004e+001 -5.572371e+001
1299646125 -2.931749e+001 1.096352e+002 -6.683028e+001 7.228526e+001 -7.346760e+001 -1.145619e+002 -1.886896e+001 -1.232260e+002
1316520750 -2.765337e+001 4.848997e+001 -6.382852e+001 1.040096e+001 -9.350414e+001 -3.152832e+001 -1.925076e+001 1.693902e+002
1333395375 -2.468891e+001 7.656370e+000 -6.694751e+001 -6.301130e+001 -7.001386e+001 -1.017951e+002 -2.052091e+001 8.991897e+001
1350270000 -2.264014e+001 -2.215245e+001 -7.351768e+001 -1.668685e+002 -6.964507e+001 -1.345441e+002 -2.000242e+001 4.099006e+000
1367144625 -2.149329e+001 -5.016969e+001 -6.444416e+001 8.108622e+001 -6.586086e+001 1.612360e+002 -1.889856e+001 -7.033202e+001
1384019250 -2.105413e+001 -7.802706e+001 -7.264336e+001 -1.707458e+001 -7.335925e+001 -3.282184e+001 -1.901820e+001 -1.396306e+002
1400893875 -2.106381e+001 -1.082169e+002 -6.397568e+001 -7.170142e+001 -7.653341e+001 1.490022e+002 -2.063444e+001 1.447331e+002
1417768500 -2.133787e+001 -1.405235e+002 -6.042195e+001 -1.280452e+002 -7.149837e+001 1.375628e+002 -2.162131e+001 5.656120e+001
1434643125 -2.184204e+001 -1.744152e+002 -6.230144e+001 1.120073e+002 -8.402609e+001 8.255021e+001 -2.043097e+001 -2.900960e+001
1451517750 -2.218861e+001 1.494277e+002 -6.226529e+001 7.517062e+001 -6.476281e+001 -8.425371e+001 -1.946641e+001 -1.002052e+002
1468392375 -2.206094e+001 1.122963e+002 -6.792781e+001 -3.117214e+001 -7.007419e+001 -1.358408e+002 -2.035885e+001 -1.670043e+002
1485267000 -2.137002e+001 7.517581e+001 -6.165051e+001 -1.243882e+002 -6.635323e+001 5.450119e+001 -2.359019e+001 1.129324e+002
1502141625 -2.039206e+001 4.198933e+001 -6.902415e+001 -1.506977e+002 -7.089764e+001 -1.131538e+002 -2.341931e+001 1.383577e+000
1519016250 -1.937571e+001 1.198854e+001 -6.632045e+001 9.690680e+001 -6.751372e+001 -1.373258e+002 -1.918697e+001 -7.853817e+001
1535890875 -1.878397e+001 -1.513548e+001 -6.564230e+001 1.175977e+001 -8.128990e+001 1.128105e+001 -1.742064e+001 -1.401793e+002
1552765500 -1.863905e+001 -4.100405e+001 -6.293129e+001 -5.382667e+001 -6.798420e+001 4.463882e+000 -1.796597e+001 1.582241e+002
1569640125 -1.913329e+001 -6.665117e+001 -6.353919e+001 -1.001302e+002 -7.356240e+001 -7.799619e+001 -2.013765e+001 8.603886e+001
1586514750 -2.012186e+001 -9.297570e+001 -6.071578e+001 1.417728e+002 -6.936927e+001 1.594754e+002 -2.171685e+001 -5.292373e+000
1603389375 -2.154288e+001 -1.206736e+002 -6.209175e+001 1.271989e+001 -7.949783e+001 7.167867e+001 -2.001918e+001 -9.390093e+001
1620264000 -2.328897e+001 -1.525976e+002 -6.092846e+001 -1.360881e+001 -8.249544e+001 1.244304e+002 -1.847403e+001 -1.656350e+002
1637138625 -2.526697e+001 1.700543e+002 -6.891146e+001 -1.047951e+002 -6.667751e+001 8.631850e+001 -1.873177e+001 1.278416e+002
1654013250 -2.683983e+001 1.243008e+002 -6.082652e+001 -1.582372e+002 -6.899686e+001 -1.359786e+002 -2.072285e+001 5.490279e+001
1670887875 -2.677817e+001 7.441364e+001 -5.975260e+001 1.108070e+002 -7.334452e+001 -6.379667e+001 -2.229865e+001 -3.403271e+001
1687762500 -2.550116e+001 3.132607e+001 -5.750420e+001 5.004625e+001 -8.126524e+001 1.390848e+002 -2.148557e+001 -1.214561e+002
1704637125 -2.439482e+001 -4.788256e+000 -6.151863e+001 -3.648509e+001 -7.329404e+001 -1.694118e+001 -2.108853e+001 1.627685e+002
1721511750 -2.416668e+001 -3.531501e+001 -6.272632e+001 -1.424458e+002 -6.775279e+001 9.357019e+001 -2.196415e+001 8.311173e+001
1738386375 -2.449528e+001 -6.424687e+001 -5.978703e+001 1.569003e+002 -7.071239e+001 6.535327e-001 -2.188671e+001 -4.804807e+000
1755261000 -2.558762e+001 -9.573551e+001 -5.789983e+001 9.353101e+001 -7.962237e+001 -7.298448e+000 -2.044172e+001 -8.636877e+001
1772135625 -2.697780e+001 -1.336016e+002 -5.867432e+001 -8.627032e-001 -7.181743e+001 -3.849600e+001 -1.923262e+001 -1.603435e+002
1789010250 -2.802053e+001 1.778991e+002 -6.129655e+001 -8.629479e+001 -7.180669e+001 9.131049e+001 -1.903567e+001 1.289078e+002
1805884875 -2.698030e+001 1.273533e+002 -5.915073e+001 -1.732254e+002 -6.664333e+001 -7.874552e+001 -1.967610e+001 5.530225e+001
1822759500 -2.481041e+001 8.402976e+001 -6.263863e+001 1.273375e+002 -7.118036e+001 5.979979e+000 -2.032987e+001 -2.595447e+001
1839634125 -2.279469e+001 4.945811e+001 -5.707489e+001 4.963990e+001 -7.187745e+001 3.701066e+001 -1.981165e+001 -1.073553e+002
1856508750 -2.139012e+001 1.985770e+001 -6.014545e+001 -4.777533e+001 -7.054517e+001 1.186255e+002 -1.937274e+001 1.793910e+002
1873383375 -2.069258e+001 -6.623623e+000 -5.607128e+001 -1.180131e+002 -7.163187e+001 -1.076191e+002 -2.041453e+001 1.081759e+002
1890258000 -2.051220e+001 -3.195349e+001 -5.635898e+001 1.603506e+002 -6.600570e+001 1.456580e+002 -2.263799e+001 2.510218e+001
1907132625 -2.081283e+001 -5.975109e+001 -5.829935e+001 8.526265e+001 -6.747091e+001 6.380333e+001 -2.275478e+001 -7.049501e+001
1924007250 -2.157252e+001 -9.047975e+001 -5.852569e+001 1.161838e+001 -7.298860e+001 -8.530853e+001 -2.084834e+001 -1.539065e+002
1940881875 -2.238877e+001 -1.256357e+002 -5.564726e+001 -6.052592e+001 -7.897711e+001 -1.251181e+002 -1.978408e+001 1.344057e+002
1957756500 -2.287992e+001 -1.661005e+002 -5.715758e+001 -1.353974e+002 -7.805756e+001 -7.519397e+001 -2.006531e+001 6.397243e+001
1974631125 -2.242945e+001 1.524179e+002 -5.698671e+001 1.369823e+002 -7.784900e+001 -9.169288e+001 -2.140539e+001 -1.218936e+001
1991505750 -2.142071e+001 1.138345e+002 -5.711593e+001 6.590288e+001 -7.288011e+001 -1.764535e+002 -2.221239e+001 -1.033459e+002
2008380375 -2.028371e+001 8.024075e+001 -5.418473e+001 -3.699489e+001 -7.376929e+001 1.773924e+002 -2.007617e+001 1.689359e+002
2025255000 -1.920604e+001 5.178776e+001 -5.616369e+001 -1.283400e+002 -7.865445e+001 7.838828e+001 -1.792493e+001 9.702355e+001
2042129625 -1.836120e+001 2.590422e+001 -5.609654e+001 1.649784e+002 -7.631406e+001 -1.784982e+002 -1.705581e+001 3.170184e+001
2059004250 -1.802422e+001 1.593438e+000 -5.441211e+001 8.897187e+001 -7.020367e+001 -7.690585e+000 -1.732512e+001 -3.324310e+001
2075878875 -1.821916e+001 -2.236961e+001 -5.520036e+001 1.409909e+001 -7.455071e+001 -4.170869e+001 -1.872098e+001 -1.005905e+002
2092753500 -1.908331e+001 -4.652771e+001 -5.546718e+001 -4.913913e+001 -7.021527e+001 -1.572695e+002 -2.131393e+001 -1.757481e+002
2109628125 -2.056526e+001 -7.302981e+001 -5.411678e+001 -1.427316e+002 -7.511731e+001 -1.285600e+002 -2.392007e+001 9.237231e+001
2126502750 -2.281114e+001 -1.037746e+002 -5.420959e+001 1.450595e+002 -7.881648e+001 -1.081107e+002 -2.330475e+001 -6.044815e+000
2143377375 -2.550128e+001 -1.432652e+002 -5.341948e+001 7.096423e+001 -7.165004e+001 -5.140902e+001 -2.169437e+001 -8.871896e+001
2160252000 -2.719947e+001 1.659606e+002 -5.334546e+001 -2.444485e+001 -7.407349e+001 2.922304e+001 -2.098989e+001 -1.657076e+002
2177126625 -2.634957e+001 1.152771e+002 -5.394711e+001 -1.073874e+002 -7.868750e+001 2.622041e+001 -2.036318e+001 1.158465e+002
2194001250 -2.425515e+001 7.399940e+001 -5.727638e+001 -1.736830e+002 -7.286063e+001 1.067910e+002 -1.966680e+001 3.919864e+001
2210875875 -2.251556e+001 4.159430e+001 -5.496342e+001 1.242575e+002 -8.457052e+001 1.292019e+002 -1.896118e+001 -3.452043e+001
2227750500 -2.142549e+001 1.468126e+001 -5.202386e+001 3.299927e+001 -7.417839e+001 5.320126e+001 -1.863820e+001 -1.054055e+002
2244625125 -2.112689e+001 -9.141814e+000 -5.263947e+001 -2.975356e+001 -7.119100e+001 9.459934e+001 -1.900688e+001 -1.758629e+002
2261499750 -2.179857e+001 -3.247548e+001 -5.147895e+001 -1.177646e+002 -7.710435e+001 -6.874368e+001 -2.012066e+001 1.097585e+002
2278374375 -2.363343e+001 -5.487823e+001 -5.116480e+001 1.644657e+002 -6.992538e+001 -7.267578e+000 -2.071908e+001 2.850292e+001
2295249000 -2.737017e+001 -7.939877e+001 -5.048429e+001 7.809297e+001 -7.417662e+001 -1.278504e+002 -2.074985e+001 -5.000547e+001
2312123625 -3.450384e+001 -1.220689e+002 -5.051868e+001 -8.072556e+000 -6.753365e+001 1.129108e+002 -2.152931e+001 -1.247865e+002
2328998250 -3.426147e+001 1.147029e+002 -5.192013e+001 -8.029002e+001 -6.980638e+001 1.148936e+002 -2.354355e+001 1.535024e+002
2345872875 -2.662960e+001 7.079467e+001 -5.027638e+001 -1.496012e+002 -7.380486e+001 1.776192e+002 -2.428305e+001 5.206186e+001
2362747500 -2.256143e+001 4.281244e+001 -5.067612e+001 1.249744e+002 -6.531922e+001 -1.765818e+002 -2.150599e+001 -3.884616e+001
2379622125 -2.000863e+001 1.772992e+001 -4.985178e+001 4.922626e+001 -7.135649e+001 5.201019e+001 -1.910048e+001 -1.102422e+002
2396496750 -1.832947e+001 -6.285910e+000 -5.025174e+001 -2.591275e+001 -8.105475e+001 6.285192e+001 -1.855482e+001 -1.737919e+002
2413371375 -1.724346e+001 -2.998836e+001 -4.831745e+001 -1.111005e+002 -6.885969e+001 1.586808e+002 -1.987167e+001 1.198213e+002
2430246000 -1.662701e+001 -5.328226e+001 -4.805688e+001 1.695362e+002 -6.755276e+001 1.044677e+002 -2.215259e+001 3.732418e+001
2447120625 -1.647982e+001 -7.696174e+001 -4.732135e+001 8.687505e+001 -7.842539e+001 -4.703389e+001 -2.174760e+001 -5.656694e+001
2463995250 -1.661881e+001 -1.022278e+002 -4.768275e+001 1.313716e+001 -7.027142e+001 5.014288e+001 -1.962345e+001 -1.332388e+002
2480869875 -1.701223e+001 -1.298673e+002 -4.778375e+001 -6.915382e+001 -7.480631e+001 -1.564134e+002 -1.900483e+001 1.618745e+002
2497744500 -1.728666e+001 -1.601110e+002 -4.770887e+001 -1.452647e+002 -8.394243e+001 2.861146e+001 -2.036097e+001 9.662551e+001
2514619125 -1.740744e+001 1.681622e+002 -4.668293e+001 1.421085e+002 -7.134048e+001 1.727065e+002 -2.351933e+001 1.912819e+001
2531493750 -1.732692e+001 1.367562e+002 -4.585384e+001 6.552752e+001 -8.544029e+001 5.769189e+001 -2.532899e+001 -8.809187e+001
2548368375 -1.712643e+001 1.066075e+002 -4.486110e+001 -1.388764e+001 -8.013693e+001 -8.755446e+001 -2.178856e+001 1.778517e+002
2565243000 -1.697385e+001 7.858060e+001 -4.485618e+001 -1.007559e+002 -7.119083e+001 -9.739481e+001 -1.944360e+001 1.072523e+002
