!Agilent Technologies,N5230A,MY45000845,A.06.01.05
!Agilent N5230A: A.06.01.05
!Date: Wednesday, February 05, 2014 16:43:17
!Correction: S11(Full 2 Port(1,2)) S21(Full 2 Port(1,2)) S12(Full 2 Port(1,2)) S22(Full 2 Port(1,2)) 
!S2P File: Measurements: S11, S21, S12, S22:
# Hz S  dB   R 50
300000 -3.885242e+001 -5.037373e+001 -4.088394e-002 -4.226219e-001 -3.709025e-002 -3.197403e-001 -4.108591e+001 -4.810080e+001
17174625 -2.386239e+001 -1.835927e+001 -4.803044e-001 -5.514238e+001 -4.885106e-001 -5.506964e+001 -2.381736e+001 -1.377531e+001
34049250 -2.452838e+001 -8.823145e+001 -6.601567e-001 -1.067120e+002 -6.625853e-001 -1.066716e+002 -2.325125e+001 -7.491052e+001
50923875 -2.637173e+001 -1.679643e+002 -7.459721e-001 -1.584381e+002 -7.591911e-001 -1.583736e+002 -2.484858e+001 -1.321525e+002
67798500 -2.634082e+001 1.124949e+002 -8.126594e-001 1.498507e+002 -8.240957e-001 1.499329e+002 -2.714820e+001 1.757484e+002
84673125 -2.527489e+001 5.098302e+001 -8.631779e-001 9.819343e+001 -8.759973e-001 9.828001e+001 -2.819678e+001 1.349127e+002
101547750 -2.535768e+001 3.187046e+000 -9.000031e-001 4.652433e+001 -9.168817e-001 4.667544e+001 -2.672702e+001 9.743071e+001
118422375 -2.635600e+001 -4.276224e+001 -9.242461e-001 -5.138632e+000 -9.409037e-001 -5.067892e+000 -2.433205e+001 5.262745e+001
135297000 -2.855391e+001 -9.813728e+001 -9.414794e-001 -5.685710e+001 -9.673669e-001 -5.683255e+001 -2.341924e+001 2.166324e+000
152171625 -2.936844e+001 -1.746951e+002 -9.675899e-001 -1.086489e+002 -1.001804e+000 -1.084054e+002 -2.408181e+001 -5.084481e+001
169046250 -2.672987e+001 1.091353e+002 -1.011685e+000 -1.604225e+002 -9.377730e-001 -1.602147e+002 -2.623532e+001 -1.045700e+002
185920875 -2.472046e+001 5.073849e+001 -9.931410e-001 1.479513e+002 -1.039351e+000 1.474436e+002 -2.973973e+001 -1.501918e+002
202795500 -2.512683e+001 1.482471e+000 -1.038152e+000 9.611941e+001 -1.083584e+000 9.625244e+001 -3.082051e+001 1.775461e+002
219670125 -2.852546e+001 -4.040805e+001 -1.062722e+000 4.441008e+001 -1.093646e+000 4.456000e+001 -2.810572e+001 1.326322e+002
236544750 -3.754609e+001 -8.055428e+001 -1.080793e+000 -7.279464e+000 -1.104110e+000 -7.064387e+000 -2.553421e+001 8.042748e+001
253419375 -3.973430e+001 9.635942e+001 -1.092342e+000 -5.901177e+001 -1.102993e+000 -5.879111e+001 -2.431233e+001 2.473896e+001
270294000 -2.880029e+001 6.409792e+001 -1.116355e+000 -1.107169e+002 -1.126088e+000 -1.105566e+002 -2.540327e+001 -3.080418e+001
287168625 -2.404086e+001 3.042319e+001 -1.135943e+000 -1.625258e+002 -1.150615e+000 -1.623040e+002 -2.861911e+001 -8.869675e+001
304043250 -2.226401e+001 -8.331527e+000 -1.170999e+000 1.457549e+002 -1.161132e+000 1.460111e+002 -3.535596e+001 -1.446946e+002
320917875 -2.305027e+001 -4.912549e+001 -1.184739e+000 9.431932e+001 -1.173491e+000 9.430737e+001 -3.980014e+001 -1.676797e+002
337792500 -2.757860e+001 -8.601463e+001 -1.165954e+000 4.260526e+001 -1.185092e+000 4.257394e+001 -3.233316e+001 1.672955e+002
354667125 -4.003558e+001 -7.093597e+001 -1.184849e+000 -9.290519e+000 -1.204011e+000 -9.198248e+000 -2.595216e+001 1.190978e+002
371541750 -3.126330e+001 -1.806492e+001 -1.210248e+000 -6.106738e+001 -1.226144e+000 -6.089680e+001 -2.249287e+001 6.814170e+001
388416375 -2.939143e+001 -4.411472e+001 -1.227324e+000 -1.127114e+002 -1.238102e+000 -1.125342e+002 -2.135774e+001 1.894226e+001
405291000 -3.216537e+001 -4.699890e+001 -1.238676e+000 -1.643460e+002 -1.247001e+000 -1.642580e+002 -2.233946e+001 -2.264226e+001
422165625 -2.967178e+001 -2.694128e+001 -1.253309e+000 1.439055e+002 -1.256815e+000 1.440662e+002 -2.471167e+001 -5.194466e+001
439040250 -2.665542e+001 -4.662742e+001 -1.259663e+000 9.219009e+001 -1.258817e+000 9.230982e+001 -2.591064e+001 -7.316494e+001
455914875 -2.708725e+001 -7.391991e+001 -1.275293e+000 4.044284e+001 -1.280770e+000 4.062754e+001 -2.557279e+001 -1.092628e+002
472789500 -3.073255e+001 -8.620879e+001 -1.282616e+000 -1.124335e+001 -1.293135e+000 -1.114089e+001 -2.514115e+001 -1.709299e+002
489664125 -3.227389e+001 -7.882348e+001 -1.301159e+000 -6.300946e+001 -1.305445e+000 -6.286465e+001 -2.409712e+001 1.203911e+002
506538750 -3.123026e+001 -8.180952e+001 -1.319246e+000 -1.146717e+002 -1.319748e+000 -1.146540e+002 -2.316451e+001 5.624644e+001
523413375 -3.091390e+001 -9.341077e+001 -1.335193e+000 -1.663995e+002 -1.335475e+000 -1.663725e+002 -2.305151e+001 -8.132701e-001
540288000 -2.979739e+001 -1.141703e+002 -1.349000e+000 1.420274e+002 -1.354339e+000 1.419932e+002 -2.491053e+001 -5.246472e+001
557162625 -2.902272e+001 -1.538244e+002 -1.365865e+000 9.034252e+001 -1.369248e+000 9.030023e+001 -2.929148e+001 -9.390391e+001
574037250 -2.885274e+001 1.438398e+002 -1.369109e+000 3.861895e+001 -1.387523e+000 3.862490e+001 -3.498700e+001 -1.046032e+002
590911875 -2.757396e+001 7.404912e+001 -1.365596e+000 -1.304980e+001 -1.394914e+000 -1.303807e+001 -3.498705e+001 -1.101946e+002
607786500 -2.577102e+001 1.356272e+001 -1.371976e+000 -6.477451e+001 -1.405285e+000 -6.471198e+001 -3.377745e+001 -1.544873e+002
624661125 -2.639342e+001 -3.560756e+001 -1.379685e+000 -1.165581e+002 -1.409353e+000 -1.164328e+002 -3.177535e+001 1.376233e+002
641535750 -3.040464e+001 -7.047468e+001 -1.396992e+000 -1.682977e+002 -1.431183e+000 -1.682067e+002 -2.806964e+001 7.897888e+001
658410375 -3.816808e+001 -6.871242e+001 -1.417783e+000 1.399501e+002 -1.442626e+000 1.401949e+002 -2.592159e+001 3.082561e+001
675285000 -4.135300e+001 -2.459776e+001 -1.426546e+000 8.820946e+001 -1.461971e+000 8.845736e+001 -2.587534e+001 -1.279232e+001
692159625 -3.536744e+001 2.722373e+001 -1.451370e+000 3.652710e+001 -1.475594e+000 3.675255e+001 -2.871336e+001 -5.579353e+001
709034250 -2.695855e+001 1.120387e+001 -1.469795e+000 -1.508292e+001 -1.479487e+000 -1.489147e+001 -3.835262e+001 -7.588840e+001
725908875 -2.334678e+001 -2.443679e+001 -1.477235e+000 -6.678442e+001 -1.481827e+000 -6.654610e+001 -3.432269e+001 -1.373920e+001
742783500 -2.222056e+001 -6.306349e+001 -1.500099e+000 -1.185357e+002 -1.502139e+000 -1.182795e+002 -2.906498e+001 -5.836839e+001
759658125 -2.376321e+001 -1.063040e+002 -1.496719e+000 -1.700523e+002 -1.508594e+000 -1.698127e+002 -2.948542e+001 -1.060815e+002
776532750 -2.775227e+001 -1.498311e+002 -1.471591e+000 1.383019e+002 -1.477807e+000 1.384747e+002 -3.325505e+001 -1.632692e+002
793407375 -3.309247e+001 1.742632e+002 -1.421597e+000 8.587099e+001 -1.428414e+000 8.609478e+001 -3.507948e+001 1.385073e+002
810282000 -2.951449e+001 6.803848e+001 -1.578279e+000 3.435928e+001 -1.581748e+000 3.457455e+001 -3.203648e+001 3.063708e+001
827156625 -2.672822e+001 8.977266e+000 -1.585812e+000 -1.706824e+001 -1.579047e+000 -1.685904e+001 -3.187626e+001 -1.755573e+001
844031250 -2.601125e+001 -3.542950e+001 -1.592766e+000 -6.871127e+001 -1.586886e+000 -6.858339e+001 -3.173642e+001 -5.366698e+001
860905875 -2.912873e+001 -7.498067e+001 -1.586016e+000 -1.203577e+002 -1.588588e+000 -1.202526e+002 -3.258595e+001 -1.043549e+002
877780500 -4.524711e+001 -2.311921e+001 -1.604382e+000 -1.721519e+002 -1.607014e+000 -1.719384e+002 -3.165213e+001 1.672612e+002
894655125 -2.675082e+001 4.842199e+000 -1.622395e+000 1.361528e+002 -1.629330e+000 1.363554e+002 -2.710180e+001 8.663879e+001
911529750 -2.266614e+001 -3.483059e+001 -1.653831e+000 8.455282e+001 -1.646026e+000 8.472182e+001 -2.395147e+001 2.640707e+001
928404375 -2.250499e+001 -7.238375e+001 -1.668450e+000 3.290092e+001 -1.660347e+000 3.313668e+001 -2.379659e+001 -2.217984e+001
945279000 -2.519358e+001 -9.664166e+001 -1.670557e+000 -1.870631e+001 -1.668359e+000 -1.851066e+001 -2.664829e+001 -5.847902e+001
962153625 -2.737742e+001 -1.013805e+002 -1.678881e+000 -7.041020e+001 -1.672735e+000 -7.018755e+001 -3.078807e+001 -6.241414e+001
979028250 -2.608499e+001 -1.166905e+002 -1.693252e+000 -1.220521e+002 -1.684939e+000 -1.218768e+002 -2.793342e+001 -5.130973e+001
995902875 -2.603831e+001 -1.569678e+002 -1.707317e+000 -1.736767e+002 -1.693496e+000 -1.735215e+002 -2.512976e+001 -7.806787e+001
1012777500 -2.784891e+001 1.453032e+002 -1.710907e+000 1.346766e+002 -1.699454e+000 1.347769e+002 -2.478115e+001 -1.169084e+002
1029652125 -2.939482e+001 7.462867e+001 -1.716518e+000 8.305852e+001 -1.706052e+000 8.309159e+001 -2.604124e+001 -1.598181e+002
1046526750 -2.929030e+001 1.323329e+001 -1.720001e+000 3.135283e+001 -1.721805e+000 3.135641e+001 -2.820012e+001 1.470912e+002
1063401375 -2.961451e+001 -3.570784e+001 -1.728522e+000 -2.033903e+001 -1.739670e+000 -2.030708e+001 -2.926843e+001 8.735617e+001
1080276000 -3.054322e+001 -7.808327e+001 -1.740709e+000 -7.205624e+001 -1.750551e+000 -7.197906e+001 -2.871358e+001 2.908219e+001
1097150625 -3.316586e+001 -1.413334e+002 -1.754068e+000 -1.237308e+002 -1.755765e+000 -1.236547e+002 -2.823701e+001 -1.857948e+001
1114025250 -2.980196e+001 1.110829e+002 -1.769144e+000 -1.754338e+002 -1.772119e+000 -1.753857e+002 -3.037798e+001 -4.545931e+001
1130899875 -2.327961e+001 4.429982e+001 -1.791546e+000 1.329012e+002 -1.793826e+000 1.329668e+002 -2.938629e+001 -4.556005e+001
1147774500 -2.038362e+001 -6.302671e+000 -1.802418e+000 8.131551e+001 -1.804603e+000 8.136649e+001 -2.659358e+001 -7.111786e+001
1164649125 -2.043629e+001 -5.279603e+001 -1.798643e+000 2.973839e+001 -1.810956e+000 2.978071e+001 -2.711465e+001 -1.136548e+002
1181523750 -2.351361e+001 -1.005191e+002 -1.797459e+000 -2.195902e+001 -1.810465e+000 -2.188814e+001 -3.256173e+001 -1.709836e+002
1198398375 -3.189794e+001 -1.637482e+002 -1.800356e+000 -7.372302e+001 -1.818934e+000 -7.360437e+001 -3.587910e+001 3.889023e+001
1215273000 -3.269117e+001 5.340340e+001 -1.820177e+000 -1.254818e+002 -1.827515e+000 -1.253826e+002 -2.871052e+001 -3.842191e+001
1232147625 -2.679817e+001 1.901569e+000 -1.838251e+000 -1.771533e+002 -1.855128e+000 -1.770453e+002 -2.798237e+001 -8.657246e+001
1249022250 -2.414555e+001 -2.819110e+001 -1.850894e+000 1.311931e+002 -1.869926e+000 1.312683e+002 -3.204621e+001 -1.124976e+002
1265896875 -2.254184e+001 -5.558785e+001 -1.863300e+000 7.955076e+001 -1.885560e+000 7.965974e+001 -3.199190e+001 -8.945518e+001
1282771500 -2.230794e+001 -8.747899e+001 -1.869486e+000 2.792854e+001 -1.894346e+000 2.809731e+001 -2.711600e+001 -1.116153e+002
1299646125 -2.489027e+001 -1.253915e+002 -1.885662e+000 -2.371980e+001 -1.895040e+000 -2.360895e+001 -2.661230e+001 -1.549009e+002
1316520750 -3.494920e+001 -1.687100e+002 -1.887977e+000 -7.539510e+001 -1.895921e+000 -7.526273e+001 -3.083595e+001 1.498022e+002
1333395375 -3.304966e+001 -1.865809e+001 -1.903255e+000 -1.271328e+002 -1.906956e+000 -1.270377e+002 -4.039389e+001 3.865671e+001
1350270000 -2.668398e+001 -5.132377e+001 -1.917017e+000 -1.788025e+002 -1.928167e+000 -1.786816e+002 -3.586258e+001 -7.076383e+001
1367144625 -2.503252e+001 -8.262463e+001 -1.924556e+000 1.294306e+002 -1.945577e+000 1.296446e+002 -3.784914e+001 -1.163273e+002
1384019250 -2.427700e+001 -1.128189e+002 -1.945652e+000 7.778751e+001 -1.961401e+000 7.794790e+001 -4.455944e+001 -1.342664e+001
1400893875 -2.354221e+001 -1.519608e+002 -1.960212e+000 2.611361e+001 -1.975685e+000 2.630293e+001 -3.088549e+001 -3.907065e+001
1417768500 -2.274863e+001 1.593714e+002 -1.981336e+000 -2.547127e+001 -1.983078e+000 -2.530065e+001 -2.637513e+001 -7.928394e+001
1434643125 -2.255588e+001 1.059507e+002 -2.001452e+000 -7.709637e+001 -2.003206e+000 -7.693638e+001 -2.383840e+001 -1.217319e+002
1451517750 -2.277208e+001 5.533826e+001 -2.006185e+000 -1.287141e+002 -2.005939e+000 -1.285355e+002 -2.295905e+001 -1.713931e+002
1468392375 -2.358618e+001 1.570496e+001 -2.007110e+000 1.796805e+002 -2.016542e+000 1.798149e+002 -2.352301e+001 1.242408e+002
1485267000 -2.418813e+001 -6.209603e+000 -2.014936e+000 1.279868e+002 -2.024605e+000 1.281154e+002 -2.366930e+001 4.218565e+001
1502141625 -2.294804e+001 -2.490564e+001 -2.037261e+000 7.630969e+001 -2.037200e+000 7.647572e+001 -2.121460e+001 -3.434194e+001
1519016250 -2.224285e+001 -5.488556e+001 -2.050848e+000 2.474421e+001 -2.056321e+000 2.484233e+001 -1.942171e+001 -9.265051e+001
1535890875 -2.445893e+001 -9.212830e+001 -2.055403e+000 -2.683577e+001 -2.055810e+000 -2.673969e+001 -2.001313e+001 -1.399108e+002
1552765500 -3.369395e+001 -1.270539e+002 -2.041345e+000 -7.850232e+001 -2.044970e+000 -7.838697e+001 -2.299887e+001 -1.723911e+002
1569640125 -3.309631e+001 -1.754231e+000 -2.059464e+000 -1.302004e+002 -2.061956e+000 -1.300522e+002 -2.507407e+001 1.779005e+002
1586514750 -2.612736e+001 -4.139448e+001 -2.061065e+000 1.781373e+002 -2.078343e+000 1.782675e+002 -2.348592e+001 1.563174e+002
1603389375 -2.500189e+001 -8.289138e+001 -2.072175e+000 1.265404e+002 -2.083544e+000 1.266579e+002 -2.297235e+001 1.127738e+002
1620264000 -2.662959e+001 -1.253979e+002 -2.073964e+000 7.483534e+001 -2.085126e+000 7.501389e+001 -2.487247e+001 5.731620e+001
1637138625 -2.976103e+001 -1.763630e+002 -2.083094e+000 2.314560e+001 -2.088066e+000 2.330376e+001 -2.806332e+001 -1.005024e+001
1654013250 -3.202333e+001 1.098968e+002 -2.085899e+000 -2.852703e+001 -2.085989e+000 -2.839299e+001 -2.940201e+001 -7.427503e+001
1670887875 -2.956319e+001 4.036459e+001 -2.094500e+000 -8.019348e+001 -2.095689e+000 -8.010534e+001 -2.887906e+001 -1.186013e+002
1687762500 -2.729760e+001 -9.274283e+000 -2.095061e+000 -1.318786e+002 -2.100170e+000 -1.317321e+002 -2.805296e+001 -1.490587e+002
1704637125 -2.737182e+001 -5.527952e+001 -2.075384e+000 1.763397e+002 -2.086920e+000 1.764417e+002 -2.769515e+001 -1.772071e+002
1721511750 -3.188487e+001 -1.257326e+002 -2.161361e+000 1.243644e+002 -2.165195e+000 1.244781e+002 -2.764916e+001 1.457738e+002
1738386375 -3.556103e+001 8.794697e+001 -2.171235e+000 7.296516e+001 -2.179302e+000 7.308401e+001 -3.204782e+001 1.050472e+002
1755261000 -2.805996e+001 2.670788e+001 -2.190445e+000 2.140961e+001 -2.190384e+000 2.156454e+001 -3.547000e+001 9.642509e+001
1772135625 -2.496653e+001 -1.366295e+001 -2.189090e+000 -3.021793e+001 -2.197639e+000 -3.006977e+001 -3.280082e+001 6.369902e+001
1789010250 -2.410116e+001 -5.086327e+001 -2.196968e+000 -8.180676e+001 -2.210442e+000 -8.170154e+001 -3.073824e+001 -2.381269e+000
1805884875 -2.498159e+001 -9.346585e+001 -2.199255e+000 -1.335088e+002 -2.209747e+000 -1.333411e+002 -2.964127e+001 -7.098321e+001
1822759500 -2.716128e+001 -1.464098e+002 -2.206102e+000 1.748864e+002 -2.213138e+000 1.750180e+002 -2.856921e+001 -1.276181e+002
1839634125 -2.858826e+001 1.388887e+002 -2.214072e+000 1.231827e+002 -2.215488e+000 1.233429e+002 -2.866729e+001 -1.668356e+002
1856508750 -2.729009e+001 6.616392e+001 -2.226913e+000 7.148995e+001 -2.232518e+000 7.164091e+001 -2.840307e+001 1.695278e+002
1873383375 -2.656414e+001 1.486640e+001 -2.231496e+000 1.995889e+001 -2.239529e+000 2.007152e+001 -2.697786e+001 1.355635e+002
1890258000 -2.877107e+001 -2.647748e+001 -2.236985e+000 -3.174334e+001 -2.236368e+000 -3.163086e+001 -2.813458e+001 7.960275e+001
1907132625 -3.804589e+001 -6.010302e+001 -2.244583e+000 -8.344377e+001 -2.251672e+000 -8.329356e+001 -3.098414e+001 -2.380947e+000
1924007250 -3.645817e+001 6.909273e+001 -2.264534e+000 -1.351943e+002 -2.270030e+000 -1.350349e+002 -2.996104e+001 -1.040686e+002
1940881875 -2.840897e+001 4.176923e+001 -2.272333e+000 1.731599e+002 -2.281263e+000 1.732918e+002 -2.779290e+001 -1.798240e+002
1957756500 -2.591596e+001 8.593445e+000 -2.284749e+000 1.215153e+002 -2.298256e+000 1.216504e+002 -2.882087e+001 1.249255e+002
1974631125 -2.662555e+001 -2.868543e+001 -2.304032e+000 6.992162e+001 -2.308112e+000 7.007185e+001 -3.159204e+001 1.050002e+002
1991505750 -3.093351e+001 -6.222511e+001 -2.303948e+000 1.824374e+001 -2.314689e+000 1.844260e+001 -2.814015e+001 1.022117e+002
2008380375 -5.055216e+001 -8.196542e+001 -2.317978e+000 -3.343734e+001 -2.322982e+000 -3.325778e+001 -2.515679e+001 6.223333e+001
2025255000 -3.424490e+001 5.375736e+001 -2.333513e+000 -8.508194e+001 -2.331399e+000 -8.491437e+001 -2.514374e+001 1.157396e+001
2042129625 -2.935176e+001 3.688533e+001 -2.348735e+000 -1.367430e+002 -2.349855e+000 -1.366358e+002 -2.850902e+001 -4.652882e+001
2059004250 -2.634834e+001 2.961902e+001 -2.365121e+000 1.715916e+002 -2.372439e+000 1.717147e+002 -4.472980e+001 -1.056606e+002
2075878875 -2.291905e+001 1.050542e+001 -2.385313e+000 1.200114e+002 -2.392221e+000 1.201181e+002 -3.134350e+001 7.284807e-001
2092753500 -2.155877e+001 -2.061712e+001 -2.395720e+000 6.844819e+001 -2.407729e+000 6.856094e+001 -2.625021e+001 -6.364616e+001
2109628125 -2.278860e+001 -6.058555e+001 -2.389928e+000 1.686806e+001 -2.408712e+000 1.704781e+001 -2.577486e+001 -1.274238e+002
2126502750 -2.743085e+001 -1.118493e+002 -2.381117e+000 -3.479910e+001 -2.397107e+000 -3.460629e+001 -2.803743e+001 1.655154e+002
2143377375 -3.353123e+001 1.484872e+002 -2.389651e+000 -8.654299e+001 -2.403540e+000 -8.633308e+001 -3.249963e+001 9.497142e+001
2160252000 -2.921942e+001 6.392732e+001 -2.415088e+000 -1.382155e+002 -2.419059e+000 -1.380688e+002 -3.761721e+001 5.777682e+001
2177126625 -2.709165e+001 2.769202e+001 -2.430250e+000 1.701297e+002 -2.434299e+000 1.703481e+002 -3.262490e+001 5.063494e+001
2194001250 -2.611207e+001 2.207806e+000 -2.447381e+000 1.185652e+002 -2.445602e+000 1.186584e+002 -2.681455e+001 -4.183754e+000
2210875875 -2.613033e+001 -2.499681e+001 -2.445282e+000 6.694292e+001 -2.457780e+000 6.706721e+001 -2.411301e+001 -6.553222e+001
2227750500 -2.962243e+001 -6.292089e+001 -2.449396e+000 1.529500e+001 -2.464808e+000 1.546910e+001 -2.369435e+001 -1.278863e+002
2244625125 -3.998966e+001 1.382711e+002 -2.452262e+000 -3.644372e+001 -2.459598e+000 -3.622560e+001 -2.610435e+001 1.701680e+002
2261499750 -2.536205e+001 6.254663e+001 -2.467665e+000 -8.822568e+001 -2.467128e+000 -8.801115e+001 -3.523433e+001 1.187528e+002
2278374375 -2.135997e+001 2.551782e+001 -2.508737e+000 -1.398470e+002 -2.502671e+000 -1.397174e+002 -3.563612e+001 -1.744369e+002
2295249000 -2.060541e+001 -4.215087e+000 -2.520065e+000 1.686273e+002 -2.530888e+000 1.687847e+002 -2.804899e+001 1.167502e+002
2312123625 -2.139000e+001 -2.787341e+001 -2.525049e+000 1.170529e+002 -2.535228e+000 1.172114e+002 -2.445469e+001 4.143631e+001
2328998250 -2.315984e+001 -4.927765e+001 -2.526575e+000 6.541512e+001 -2.532658e+000 6.558700e+001 -2.243253e+001 -2.592616e+001
2345872875 -2.691999e+001 -7.670586e+001 -2.531807e+000 1.381377e+001 -2.537362e+000 1.397906e+001 -2.245045e+001 -8.516452e+001
2362747500 -6.007168e+001 -4.339854e+001 -2.535862e+000 -3.791735e+001 -2.541275e+000 -3.775063e+001 -2.533650e+001 -1.350710e+002
2379622125 -2.480438e+001 2.561651e+001 -2.558775e+000 -8.964895e+001 -2.551454e+000 -8.952227e+001 -3.061747e+001 -1.380868e+002
2396496750 -1.924678e+001 -1.649357e+001 -2.590719e+000 -1.412052e+002 -2.600645e+000 -1.412132e+002 -2.546655e+001 -1.320519e+002
2413371375 -1.758728e+001 -6.073315e+001 -2.613200e+000 1.672588e+002 -2.620279e+000 1.673992e+002 -2.224417e+001 -1.739158e+002
2430246000 -1.855754e+001 -1.059289e+002 -2.589861e+000 1.158194e+002 -2.621037e+000 1.160075e+002 -2.252133e+001 1.355795e+002
2447120625 -2.208868e+001 -1.549162e+002 -2.578380e+000 6.414760e+001 -2.592964e+000 6.440529e+001 -2.639996e+001 8.025185e+001
2463995250 -2.757013e+001 1.436271e+002 -2.574113e+000 1.240526e+001 -2.571441e+000 1.259310e+001 -3.398613e+001 1.009039e+001
2480869875 -2.996000e+001 5.784814e+001 -2.583190e+000 -3.936634e+001 -2.584149e+000 -3.911480e+001 -3.732340e+001 -9.838184e+001
2497744500 -2.817860e+001 -2.523493e+000 -2.600536e+000 -9.101016e+001 -2.599113e+000 -9.078436e+001 -3.509956e+001 -1.474072e+002
2514619125 -2.702415e+001 -5.178897e+001 -2.606759e+000 -1.426549e+002 -2.620437e+000 -1.425490e+002 -3.273918e+001 -1.753698e+002
2531493750 -2.585088e+001 -1.072238e+002 -2.614147e+000 1.656219e+002 -2.627854e+000 1.658450e+002 -3.086941e+001 1.595375e+002
2548368375 -2.423157e+001 -1.704383e+002 -2.641507e+000 1.138673e+002 -2.647729e+000 1.141475e+002 -2.917647e+001 1.357889e+002
2565243000 -2.241888e+001 1.305763e+002 -2.668515e+000 6.229041e+001 -2.659838e+000 6.248265e+001 -2.768571e+001 1.106877e+002
