!Agilent Technologies,N5230A,MY45000845,A.06.01.05
!Agilent N5230A: A.06.01.05
!Date: Wednesday, February 05, 2014 16:41:24
!Correction: S11(Full 2 Port(1,2)) S21(Full 2 Port(1,2)) S12(Full 2 Port(1,2)) S22(Full 2 Port(1,2)) 
!S2P File: Measurements: S11, S21, S12, S22:
# Hz S  dB   R 50
300000 -6.798903e-002 -1.797181e+002 -6.071337e+001 -8.998780e+001 -5.205753e+001 8.775206e+001 -1.411999e-001 1.794486e+002
17174625 -2.701767e-001 1.374837e+002 -6.744176e+001 1.644768e+001 -7.393582e+001 -5.804418e+001 -1.547114e+000 1.014893e+002
34049250 -3.120565e-001 9.703584e+001 -7.064460e+001 6.214875e+001 -6.819521e+001 -7.850713e+001 -1.787783e+000 3.468690e+001
50923875 -3.205519e-001 5.734721e+001 -7.284917e+001 4.884559e+001 -7.287166e+001 -2.588771e+001 -1.517277e+000 -3.237079e+001
67798500 -2.872708e-001 1.793738e+001 -7.180230e+001 -6.037641e+001 -7.910657e+001 9.707454e+001 -1.189935e+000 -1.004668e+002
84673125 -2.525917e-001 -2.152227e+001 -6.993840e+001 1.050558e+002 -7.537015e+001 -3.939793e+001 -9.318551e-001 -1.695488e+002
101547750 -2.604613e-001 -6.144246e+001 -7.069012e+001 -1.315965e+002 -6.616955e+001 -1.410138e+002 -7.396913e-001 1.213313e+002
118422375 -3.021151e-001 -1.019913e+002 -6.854366e+001 -1.556287e+002 -7.546957e+001 1.123205e+002 -6.237572e-001 5.282582e+001
135297000 -3.720888e-001 -1.429783e+002 -8.131689e+001 -1.395982e+002 -7.539153e+001 -1.045032e+002 -6.519479e-001 -1.549640e+001
152171625 -4.454016e-001 1.759337e+002 -7.190867e+001 -9.345043e+000 -7.259383e+001 6.234048e+001 -8.894395e-001 -8.409377e+001
169046250 -5.115935e-001 1.353239e+002 -6.745295e+001 -6.976820e+001 -7.092128e+001 6.782427e+001 -1.173429e+000 -1.534505e+002
185920875 -4.715369e-001 9.478882e+001 -6.949473e+001 -1.178136e+002 -7.387554e+001 1.152581e+002 -1.680447e+000 1.375361e+002
202795500 -5.215607e-001 5.577841e+001 -7.489659e+001 -1.070069e+002 -7.777247e+001 5.804983e+001 -1.968987e+000 6.944511e+001
219670125 -4.878498e-001 1.707376e+001 -7.404489e+001 -7.382724e+001 -6.960873e+001 -1.643780e+002 -2.145939e+000 1.547978e+000
236544750 -4.760289e-001 -2.158216e+001 -7.458325e+001 1.051211e+002 -6.883414e+001 1.694463e+002 -2.289750e+000 -6.704903e+001
253419375 -4.969231e-001 -6.086369e+001 -7.054494e+001 9.139597e+001 -7.386323e+001 -1.480298e+002 -2.401588e+000 -1.367063e+002
270294000 -5.888932e-001 -1.009829e+002 -7.443503e+001 4.492406e+001 -6.971435e+001 1.096447e+002 -2.365735e+000 1.533290e+002
287168625 -6.942678e-001 -1.421426e+002 -6.612998e+001 -7.645515e+001 -6.768287e+001 5.303580e+001 -2.142966e+000 8.399796e+001
304043250 -7.832655e-001 1.760852e+002 -6.800187e+001 9.429383e+001 -6.850914e+001 -1.437056e+002 -1.841627e+000 1.514747e+001
320917875 -8.249642e-001 1.343345e+002 -7.373325e+001 -8.818163e+001 -7.111998e+001 1.427475e+002 -1.609699e+000 -5.457387e+001
337792500 -7.807015e-001 9.288483e+001 -6.526911e+001 1.094172e+002 -6.734110e+001 -1.199591e+002 -1.480077e+000 -1.255848e+002
354667125 -7.309545e-001 5.227547e+001 -6.694660e+001 -2.474939e+001 -7.185739e+001 -6.987093e+001 -1.372772e+000 1.637738e+002
371541750 -6.751579e-001 1.294244e+001 -7.447268e+001 -1.640970e+002 -7.779982e+001 1.003560e+002 -1.257715e+000 9.533891e+001
388416375 -6.302570e-001 -2.548091e+001 -7.269156e+001 3.602239e+001 -6.843870e+001 -1.632722e+002 -1.120708e+000 2.909692e+001
405291000 -6.261274e-001 -6.349725e+001 -7.212556e+001 6.473500e+001 -6.814233e+001 -1.430460e+002 -1.088704e+000 -3.657159e+001
422165625 -6.898203e-001 -1.019500e+002 -7.340325e+001 1.223273e+002 -6.738782e+001 -1.700468e+002 -1.315894e+000 -1.039274e+002
439040250 -7.860391e-001 -1.411679e+002 -7.131061e+001 -1.031820e+002 -6.989014e+001 7.067365e+001 -1.715865e+000 -1.735399e+002
455914875 -8.732001e-001 1.784546e+002 -6.990298e+001 1.382489e+002 -7.258929e+001 -1.593389e+002 -2.042445e+000 1.159966e+002
472789500 -9.346125e-001 1.371868e+002 -6.719599e+001 1.400039e+002 -8.549663e+001 -2.317622e+000 -2.162090e+000 4.646536e+001
489664125 -9.288270e-001 9.562321e+001 -7.183033e+001 6.477857e+001 -7.301470e+001 1.082888e+002 -2.248668e+000 -2.233292e+001
506538750 -8.968201e-001 5.426114e+001 -7.380989e+001 -9.794765e+001 -6.647512e+001 -7.981736e+001 -2.382018e+000 -9.175267e+001
523413375 -8.546644e-001 1.352071e+001 -7.133738e+001 -5.729321e+001 -6.994151e+001 -5.529060e-001 -2.546484e+000 -1.620388e+002
540288000 -8.266718e-001 -2.674830e+001 -7.133092e+001 1.306765e+002 -6.645383e+001 1.077228e+002 -2.516268e+000 1.276376e+002
557162625 -8.797832e-001 -6.636411e+001 -7.462099e+001 -3.231126e+001 -7.573356e+001 -1.215546e+002 -2.232046e+000 5.811236e+001
574037250 -9.697865e-001 -1.057857e+002 -7.175540e+001 1.598172e+002 -6.744804e+001 1.368451e+002 -1.818074e+000 -1.079763e+001
590911875 -1.070556e+000 -1.452896e+002 -6.855244e+001 -5.238184e+001 -7.652808e+001 1.126247e+002 -1.526902e+000 -7.970154e+001
607786500 -1.171796e+000 1.747820e+002 -7.660499e+001 -6.671776e+001 -6.916563e+001 1.472273e+002 -1.487199e+000 -1.495972e+002
624661125 -1.220650e+000 1.345795e+002 -6.528173e+001 1.454913e+002 -7.099546e+001 -1.384979e+002 -1.590014e+000 1.403955e+002
641535750 -1.170521e+000 9.444560e+001 -6.717914e+001 -1.013423e+002 -7.005930e+001 3.064413e+001 -1.648223e+000 7.186359e+001
658410375 -1.057563e+000 5.463651e+001 -7.107648e+001 1.458120e+002 -7.097391e+001 -1.195261e+002 -1.674879e+000 4.599756e+000
675285000 -9.303623e-001 1.556152e+001 -7.180471e+001 -1.692481e+002 -6.813435e+001 2.233432e+000 -1.863746e+000 -6.295384e+001
692159625 -8.269924e-001 -2.299994e+001 -7.126468e+001 -6.759762e+001 -6.621947e+001 -2.549926e+001 -2.215341e+000 -1.323353e+002
709034250 -7.896948e-001 -6.154908e+001 -7.457450e+001 4.506463e+001 -8.928397e+001 -1.431947e+002 -2.546387e+000 1.569438e+002
725908875 -8.159811e-001 -1.004445e+002 -7.060618e+001 9.991685e+001 -7.722326e+001 7.333430e+001 -2.653439e+000 8.678030e+001
742783500 -9.130446e-001 -1.401238e+002 -6.775395e+001 6.351892e+001 -7.260906e+001 1.222913e+000 -2.627712e+000 1.771853e+001
759658125 -1.006102e+000 1.793472e+002 -6.899338e+001 -4.095941e+001 -6.976235e+001 8.160634e+001 -2.416268e+000 -4.905803e+001
776532750 -1.084027e+000 1.382470e+002 -7.387576e+001 1.229513e+000 -7.348495e+001 1.894966e+001 -2.246795e+000 -1.162164e+002
793407375 -1.103977e+000 9.701392e+001 -6.772706e+001 5.609944e+001 -6.973834e+001 -1.380155e+002 -2.059114e+000 1.734442e+002
810282000 -1.046675e+000 5.640318e+001 -7.334399e+001 -8.591813e+001 -7.138889e+001 -5.884417e+001 -2.375741e+000 1.047931e+002
827156625 -9.555774e-001 1.664410e+001 -7.701430e+001 1.637906e+002 -7.705384e+001 1.147037e+002 -2.097668e+000 3.659545e+001
844031250 -8.813402e-001 -2.239347e+001 -7.589494e+001 1.749769e+002 -6.832909e+001 9.681336e+001 -1.844391e+000 -3.204976e+001
860905875 -8.760592e-001 -6.113110e+001 -7.311532e+001 -8.664445e+001 -6.594248e+001 1.574706e+002 -1.801768e+000 -1.017750e+002
877780500 -9.375374e-001 -9.989780e+001 -7.136704e+001 1.034830e+001 -7.299701e+001 1.518429e+002 -1.937226e+000 -1.727199e+002
894655125 -1.044866e+000 -1.395041e+002 -6.415285e+001 1.610604e+002 -6.687471e+001 -1.259431e+002 -2.076625e+000 1.169304e+002
911529750 -1.180493e+000 1.796125e+002 -6.390019e+001 1.403121e+002 -7.484043e+001 2.894555e+001 -2.080673e+000 4.912249e+001
928404375 -1.320246e+000 1.378295e+002 -7.613979e+001 -3.132908e+001 -7.856512e+001 -1.089564e+002 -2.032507e+000 -1.656007e+001
945279000 -1.369914e+000 9.573235e+001 -7.559388e+001 -9.035969e+001 -7.079704e+001 4.548343e+001 -2.133335e+000 -8.246591e+001
962153625 -1.333399e+000 5.417693e+001 -6.718486e+001 -1.572167e+002 -7.274337e+001 -6.523778e+001 -2.455160e+000 -1.506808e+002
979028250 -1.247045e+000 1.327868e+001 -7.026546e+001 -1.308951e+002 -7.368264e+001 9.013356e+000 -2.878245e+000 1.378761e+002
995902875 -1.184756e+000 -2.677935e+001 -6.707529e+001 -1.554640e+001 -6.682083e+001 2.610770e+001 -3.055022e+000 6.554123e+001
1012777500 -1.144390e+000 -6.632895e+001 -7.294475e+001 1.330692e+002 -7.822379e+001 -1.655860e+002 -2.904128e+000 -4.610154e+000
1029652125 -1.174507e+000 -1.058579e+002 -6.441375e+001 -1.283794e+002 -7.981887e+001 -7.727637e+001 -2.675924e+000 -7.241820e+001
1046526750 -1.247917e+000 -1.456655e+002 -6.939881e+001 -1.433699e+001 -6.617827e+001 1.477799e+002 -2.547330e+000 -1.395919e+002
1063401375 -1.315565e+000 1.743222e+002 -7.289278e+001 7.610873e+001 -7.702028e+001 1.245003e+002 -2.466654e+000 1.526609e+002
1080276000 -1.365323e+000 1.339787e+002 -6.854518e+001 7.946661e+001 -6.586157e+001 1.318738e+002 -2.349006e+000 8.458903e+001
1097150625 -1.358523e+000 9.361391e+001 -7.884987e+001 -1.424851e+002 -6.483139e+001 -1.193298e+002 -2.115926e+000 1.725256e+001
1114025250 -1.304986e+000 5.388605e+001 -6.794170e+001 8.557040e+001 -6.429288e+001 -1.781642e+002 -1.870248e+000 -4.924975e+001
1130899875 -1.195593e+000 1.525271e+001 -6.739196e+001 -1.752042e+002 -6.799110e+001 5.602763e+001 -1.750068e+000 -1.168938e+002
1147774500 -1.087477e+000 -2.288687e+001 -7.378662e+001 8.291230e+001 -6.377926e+001 1.297771e+002 -1.895517e+000 1.724482e+002
1164649125 -1.062004e+000 -6.107027e+001 -6.508596e+001 -1.455501e+002 -7.365858e+001 -1.735640e+002 -2.152303e+000 9.947002e+001
1181523750 -1.144134e+000 -1.000148e+002 -7.050262e+001 5.095741e+001 -7.535166e+001 1.359730e+002 -2.307728e+000 2.759009e+001
1198398375 -1.262103e+000 -1.397866e+002 -7.500484e+001 -1.742369e+002 -7.252338e+001 8.031286e+000 -2.395975e+000 -4.118403e+001
1215273000 -1.386829e+000 1.792095e+002 -7.585413e+001 6.365151e+001 -7.021680e+001 -1.768075e+002 -2.592138e+000 -1.077395e+002
1232147625 -1.474506e+000 1.374406e+002 -6.659943e+001 1.148518e+001 -7.024902e+001 -1.452978e+002 -2.924546e+000 -1.749652e+002
1249022250 -1.509386e+000 9.562626e+001 -6.969209e+001 -1.892504e+001 -6.474798e+001 1.102091e+002 -3.262445e+000 1.157458e+002
1265896875 -1.451240e+000 5.434961e+001 -7.258637e+001 -1.187496e+002 -7.120617e+001 -7.526100e+001 -3.353864e+000 4.520597e+001
1282771500 -1.315599e+000 1.412999e+001 -7.390439e+001 -1.793420e+002 -7.512135e+001 -1.541193e+002 -3.134265e+000 -2.416830e+001
1299646125 -1.187448e+000 -2.485838e+001 -6.617518e+001 4.399947e+001 -7.026059e+001 -9.280053e+001 -2.791971e+000 -9.116395e+001
1316520750 -1.103583e+000 -6.288105e+001 -6.912070e+001 -4.093581e+000 -6.899286e+001 7.947366e+001 -2.563739e+000 -1.573495e+002
1333395375 -1.095594e+000 -1.007169e+002 -6.099633e+001 -1.128659e+002 -6.524181e+001 -1.072527e+002 -2.516330e+000 1.347110e+002
1350270000 -1.180426e+000 -1.392008e+002 -7.667601e+001 4.292818e+001 -7.116196e+001 -7.357181e+001 -2.469324e+000 6.497345e+001
1367144625 -1.311312e+000 -1.783111e+002 -6.585250e+001 -1.603504e+002 -7.488907e+001 7.312875e+001 -2.302466e+000 -4.618963e+000
1384019250 -1.406357e+000 1.419908e+002 -8.322004e+001 5.928365e+001 -6.406213e+001 1.350340e+002 -2.153669e+000 -7.285367e+001
1400893875 -1.447510e+000 1.022001e+002 -7.092307e+001 1.607612e+002 -6.992704e+001 1.578310e+002 -2.165473e+000 -1.406409e+002
1417768500 -1.447035e+000 6.242678e+001 -6.982697e+001 -4.046016e+000 -6.451124e+001 8.657617e+000 -2.378140e+000 1.500660e+002
1434643125 -1.399070e+000 2.303306e+001 -6.709900e+001 -1.176046e+002 -6.699496e+001 7.930116e+000 -2.706376e+000 7.877327e+001
1451517750 -1.314632e+000 -1.612811e+001 -7.048508e+001 -1.279080e+002 -8.276473e+001 -8.884621e+001 -2.933580e+000 7.106164e+000
1468392375 -1.227977e+000 -5.545618e+001 -8.194633e+001 -3.052163e+001 -1.023644e+002 1.104727e+002 -2.983698e+000 -6.272583e+001
1485267000 -1.220465e+000 -9.530390e+001 -7.643410e+001 -1.555030e+002 -8.595889e+001 7.136563e+001 -3.009022e+000 -1.305897e+002
1502141625 -1.302523e+000 -1.360137e+002 -7.611752e+001 1.176730e+002 -6.803045e+001 1.466846e+002 -3.215599e+000 1.609960e+002
1519016250 -1.436821e+000 -1.778191e+002 -7.368152e+001 1.563512e+002 -7.529909e+001 1.238166e+002 -3.534617e+000 8.921501e+001
1535890875 -1.564059e+000 1.395414e+002 -7.154073e+001 -4.987215e+001 -7.068620e+001 8.749699e+000 -3.559003e+000 1.530838e+001
1552765500 -1.627042e+000 9.706863e+001 -7.189933e+001 -4.432901e+001 -7.554852e+001 -1.608370e+002 -3.217861e+000 -5.606294e+001
1569640125 -1.626048e+000 5.571598e+001 -7.446799e+001 -4.810448e+001 -7.233286e+001 -5.637075e+001 -2.826366e+000 -1.230231e+002
1586514750 -1.573867e+000 1.577098e+001 -6.462758e+001 1.443303e+002 -6.493533e+001 1.622666e+002 -2.579645e+000 1.723680e+002
1603389375 -1.521629e+000 -2.317037e+001 -6.581672e+001 1.593531e+002 -6.688389e+001 1.384640e+002 -2.505302e+000 1.076174e+002
1620264000 -1.478192e+000 -6.181358e+001 -7.403380e+001 6.881990e+001 -6.510899e+001 1.173002e+002 -2.559083e+000 4.089585e+001
1637138625 -1.467252e+000 -1.007129e+002 -6.486105e+001 4.125227e+001 -7.044756e+001 2.850650e+001 -2.576690e+000 -2.779360e+001
1654013250 -1.494954e+000 -1.402938e+002 -6.517145e+001 -7.130573e+001 -7.000709e+001 5.873270e+001 -2.489270e+000 -9.688582e+001
1670887875 -1.572652e+000 1.794398e+002 -6.750355e+001 -2.076487e+001 -7.192504e+001 1.619795e+002 -2.452900e+000 -1.653550e+002
1687762500 -1.623193e+000 1.387343e+002 -6.477899e+001 1.181997e+002 -7.000784e+001 -1.704207e+002 -2.607065e+000 1.258989e+002
1704637125 -1.605631e+000 9.799670e+001 -7.035040e+001 -4.013899e+001 -6.470579e+001 1.637144e+002 -2.869105e+000 5.482056e+001
1721511750 -1.539623e+000 5.788279e+001 -7.712473e+001 1.465010e+002 -6.374059e+001 7.848082e+001 -3.374494e+000 -1.817473e+001
1738386375 -1.456362e+000 1.853199e+001 -7.602501e+001 4.872720e+001 -7.318987e+001 1.073091e+002 -3.504606e+000 -8.802777e+001
1755261000 -1.373607e+000 -2.010578e+001 -7.221733e+001 8.809869e+000 -7.145179e+001 1.169938e+001 -3.504871e+000 -1.569882e+002
1772135625 -1.311089e+000 -5.885602e+001 -6.598493e+001 -7.263333e+001 -7.083288e+001 2.612111e+001 -3.487369e+000 1.350875e+002
1789010250 -1.331399e+000 -9.826592e+001 -6.722309e+001 1.574152e+002 -7.214920e+001 -7.207185e+001 -3.469906e+000 6.733195e+001
1805884875 -1.399417e+000 -1.385471e+002 -6.285198e+001 -1.530041e+002 -7.082233e+001 1.717199e+002 -3.381182e+000 -7.517409e-001
1822759500 -1.515211e+000 -1.794132e+002 -8.213423e+001 1.662011e+002 -6.638242e+001 -1.418043e+002 -3.164308e+000 -6.881161e+001
1839634125 -1.594819e+000 1.394582e+002 -6.848738e+001 7.702593e+001 -6.993332e+001 9.806039e+001 -2.838964e+000 -1.361035e+002
1856508750 -1.639031e+000 9.887244e+001 -6.236878e+001 1.859352e+001 -6.277887e+001 4.467548e+001 -2.604282e+000 1.569216e+002
1873383375 -1.621642e+000 5.938638e+001 -8.139971e+001 7.966912e+001 -6.711810e+001 -5.178775e+001 -2.596854e+000 8.906192e+001
1890258000 -1.545980e+000 2.075613e+001 -7.313728e+001 -6.443253e+000 -9.066798e+001 2.501217e+001 -2.711968e+000 1.921380e+001
1907132625 -1.493237e+000 -1.772016e+001 -7.351046e+001 8.902874e+001 -6.413744e+001 -1.071421e+002 -2.815316e+000 -5.183570e+001
1924007250 -1.490125e+000 -5.668785e+001 -6.227348e+001 1.705716e+002 -6.323541e+001 -1.568503e+002 -2.870119e+000 -1.220038e+002
1940881875 -1.506407e+000 -9.681694e+001 -6.544254e+001 1.124889e+002 -6.461038e+001 1.470963e+002 -2.939120e+000 1.694550e+002
1957756500 -1.555515e+000 -1.383060e+002 -8.166579e+001 2.626604e+001 -6.424805e+001 4.233635e+001 -3.115414e+000 1.022660e+002
1974631125 -1.627176e+000 1.794057e+002 -6.637283e+001 -3.409343e+001 -6.476335e+001 2.462631e+001 -3.402579e+000 3.549883e+001
1991505750 -1.705945e+000 1.375855e+002 -6.951569e+001 -8.710010e+000 -6.569707e+001 -8.242507e+000 -3.733362e+000 -3.248109e+001
2008380375 -1.713534e+000 9.684345e+001 -6.606778e+001 -9.943530e+001 -6.653973e+001 -7.221249e+001 -3.967813e+000 -1.027082e+002
2025255000 -1.657743e+000 5.757924e+001 -6.537994e+001 -1.496686e+002 -6.279620e+001 -1.462244e+002 -3.924513e+000 -1.738361e+002
2042129625 -1.593354e+000 1.964645e+001 -7.181641e+001 1.664781e+002 -6.426506e+001 1.615954e+002 -3.704613e+000 1.160214e+002
2059004250 -1.541066e+000 -1.751388e+001 -6.984065e+001 1.254133e+002 -6.509998e+001 1.366617e+002 -3.462418e+000 4.741942e+001
2075878875 -1.515773e+000 -5.517395e+001 -6.524886e+001 2.958040e+001 -7.074229e+001 -1.165730e+001 -3.266942e+000 -1.971443e+001
2092753500 -1.537222e+000 -9.443577e+001 -6.500094e+001 9.508368e+000 -7.417230e+001 4.377544e+001 -3.090499e+000 -8.617960e+001
2109628125 -1.609701e+000 -1.355250e+002 -6.641377e+001 -4.063435e+001 -6.472647e+001 -5.614199e+001 -2.972123e+000 -1.532503e+002
2126502750 -1.704113e+000 -1.777139e+002 -6.431067e+001 -1.016451e+002 -6.442603e+001 -1.113927e+002 -2.900089e+000 1.381306e+002
2143377375 -1.754264e+000 1.401196e+002 -6.324230e+001 1.667958e+002 -6.366930e+001 -1.451020e+002 -2.868331e+000 6.830442e+001
2160252000 -1.765666e+000 9.907110e+001 -6.046096e+001 1.351553e+002 -7.260063e+001 1.293240e+002 -2.898487e+000 -1.437279e+000
2177126625 -1.773460e+000 5.959210e+001 -6.377037e+001 9.906334e+001 -6.785590e+001 6.147215e+001 -3.063547e+000 -7.064749e+001
2194001250 -1.737716e+000 2.145498e+001 -6.019460e+001 3.571299e+001 -6.826839e+001 3.182876e+001 -3.310150e+000 -1.398166e+002
2210875875 -1.700644e+000 -1.606931e+001 -6.170789e+001 -2.844106e+001 -6.556477e+001 -2.471274e+001 -3.582499e+000 1.502466e+002
2227750500 -1.694450e+000 -5.390107e+001 -6.161290e+001 -9.679723e+001 -6.882178e+001 -4.472578e+001 -3.852063e+000 7.929257e+001
2244625125 -1.736007e+000 -9.301279e+001 -6.762102e+001 -1.386104e+002 -6.363168e+001 -1.675449e+002 -4.054808e+000 8.050737e+000
2261499750 -1.803953e+000 -1.342987e+002 -6.272539e+001 1.631264e+002 -6.175219e+001 1.731011e+002 -4.096144e+000 -6.183427e+001
2278374375 -1.858461e+000 -1.776373e+002 -6.394183e+001 1.324109e+002 -6.454881e+001 1.246966e+002 -4.067214e+000 -1.299217e+002
2295249000 -1.871883e+000 1.385526e+002 -6.322157e+001 5.815054e+001 -6.128691e+001 4.399197e+001 -3.974655e+000 1.623630e+002
2312123625 -1.798612e+000 9.629197e+001 -6.883862e+001 -1.830602e+001 -6.322866e+001 -9.603028e+000 -3.802367e+000 9.416482e+001
2328998250 -1.671891e+000 5.612653e+001 -6.037450e+001 -3.278559e+001 -5.944601e+001 -3.170301e+001 -3.536878e+000 2.595913e+001
2345872875 -1.574808e+000 1.765526e+001 -6.282378e+001 -9.096089e+001 -5.871097e+001 -7.537077e+001 -3.251073e+000 -4.071241e+001
2362747500 -1.522943e+000 -1.949367e+001 -6.082788e+001 -1.684314e+002 -5.808338e+001 -1.378912e+002 -3.035770e+000 -1.059681e+002
2379622125 -1.519131e+000 -5.635144e+001 -6.656158e+001 1.488682e+002 -6.537199e+001 -1.794383e+002 -2.912322e+000 -1.710059e+002
2396496750 -1.543278e+000 -9.385030e+001 -6.031093e+001 1.019177e+002 -6.243273e+001 1.051802e+002 -2.964150e+000 1.214721e+002
2413371375 -1.635687e+000 -1.326249e+002 -6.162143e+001 4.173248e+001 -5.941172e+001 4.030404e+001 -3.156262e+000 4.926669e+001
2430246000 -1.767949e+000 -1.730154e+002 -5.868351e+001 -1.228626e+001 -5.750983e+001 -1.263883e+001 -3.385164e+000 -2.594958e+001
2447120625 -1.891284e+000 1.451816e+002 -5.859862e+001 -8.682047e+001 -5.783269e+001 -9.335396e+001 -3.539784e+000 -9.940253e+001
2463995250 -1.950241e+000 1.028129e+002 -5.744900e+001 -1.271550e+002 -5.777439e+001 -1.144534e+002 -3.664156e+000 -1.690221e+002
2480869875 -1.911071e+000 6.115325e+001 -6.305007e+001 1.575705e+002 -5.736160e+001 1.787986e+002 -3.873206e+000 1.235618e+002
2497744500 -1.840284e+000 2.041314e+001 -5.696740e+001 1.342888e+002 -5.576781e+001 1.085354e+002 -4.141054e+000 5.541242e+001
2514619125 -1.788267e+000 -2.001401e+001 -5.719690e+001 7.933575e+001 -5.706069e+001 5.947562e+001 -4.338651e+000 -1.436927e+001
2531493750 -1.776608e+000 -6.080634e+001 -6.478914e+001 2.973537e+001 -5.709986e+001 1.386205e+001 -4.398286e+000 -8.472872e+001
2548368375 -1.800554e+000 -1.020398e+002 -5.860140e+001 -1.764946e+001 -5.683732e+001 -4.849465e+001 -4.248315e+000 -1.532979e+002
2565243000 -1.809085e+000 -1.437466e+002 -5.756800e+001 -8.390389e+001 -5.738957e+001 -8.376873e+001 -3.961083e+000 1.405107e+002
